 (000.000000)  can0  1B40010A   [5]  1E 41 51 CA C1
 (000.000450)  can0  1B40020A   [5]  1E 41 48 56 9B
 (000.000939)  can0  1B40030A   [5]  1E BC 70 4B E5
 (000.001306)  can0  1B40040A   [5]  1E BB F0 4B EC
 (000.001747)  can0  1B40050A   [5]  1E C2 88 EC 4F
 (000.002220)  can0  1B40060A   [5]  1E 41 AD F6 14
 (000.002503)  can0  1B40070A   [1]  3D
 (000.002951)  can0  1B40080A   [5]  1E BC 54 EB D0
 (000.003391)  can0  1B40090A   [5]  1E BB FE 3A D2
 (000.003832)  can0  1B400A0A   [5]  1E BC 54 EB D0
 (000.004274)  can0  1B400B0A   [5]  1E BB FE 3A D2
 (000.312544)  can0  1B400100   [8]  24 82 22 1A 00 00 33 40
 (000.313069)  can0  1B400200   [8]  24 82 22 1A 00 00 32 87
 (000.313641)  can0  1B400300   [8]  24 82 22 1A 00 00 0C CD
 (000.512160)  can0  1B400400   [8]  24 82 22 1A 00 00 0C D1
 (000.512716)  can0  1B400500   [8]  24 82 22 1A 00 00 0C D0
 (000.513272)  can0  1B400600   [8]  24 82 22 1A 00 00 00 2D
 (000.711943)  can0  1B400700   [8]  24 82 22 1A 00 00 0C D1
 (000.712485)  can0  1B400800   [8]  24 82 22 3A 00 00 00 1A
 (000.712926)  can0  1B400900   [5]  1E 41 C8 CC CD
 (000.813237)  can0  1B400A00   [5]  1E 42 88 3E 71
 (000.973387)  can0  1B40010A   [5]  1E 41 51 CA C1
 (000.973811)  can0  1B40020A   [5]  1E 41 48 09 5D
 (000.974259)  can0  1B40030A   [5]  1E BB F0 4C 04
 (000.974709)  can0  1B40040A   [5]  1E BB F0 4B EC
 (000.975149)  can0  1B40050A   [5]  1E C2 8A 6F 02
 (000.975604)  can0  1B40060A   [5]  1E 41 AD FF 36
 (000.975908)  can0  1B40070A   [1]  3D
 (000.976357)  can0  1B40080A   [5]  1E BC 55 5B D7
 (000.976806)  can0  1B40090A   [5]  1E BB FF 1A E0
 (000.977247)  can0  1B400A0A   [5]  1E BC 55 5B D7
 (000.977705)  can0  1B400B0A   [5]  1E BB FF 1A E0
 (001.311519)  can0  1B400100   [8]  24 82 22 1A 00 00 33 41
 (001.312038)  can0  1B400200   [8]  24 82 22 1A 00 00 32 C4
 (001.312589)  can0  1B400300   [8]  24 82 22 1A 00 00 0C CD
 (001.511118)  can0  1B400400   [8]  24 82 22 1A 00 00 0C D1
 (001.511680)  can0  1B400500   [8]  24 82 22 1A 00 00 0C D0
 (001.512236)  can0  1B400600   [8]  24 82 22 1A 00 00 00 2D
 (001.710948)  can0  1B400700   [8]  24 82 22 1A 00 00 0C D1
 (001.711481)  can0  1B400800   [8]  24 82 22 3A 00 00 00 22
 (001.711919)  can0  1B400900   [5]  1E 41 C8 CC CD
 (001.910638)  can0  1B400A00   [5]  1E 42 88 3E 70
 (001.946902)  can0  1B40010A   [5]  1E 41 51 F7 CF
 (001.947319)  can0  1B40020A   [5]  1E 41 48 A3 D7
 (001.947760)  can0  1B40030A   [5]  1E B2 F5 C2 8F
 (001.948209)  can0  1B40040A   [5]  1E B2 93 74 BC
 (001.948653)  can0  1B40050A   [5]  1E C2 88 FD 73
 (001.949098)  can0  1B40060A   [5]  1E 41 AE 28 55
 (001.949384)  can0  1B40070A   [1]  3D
 (001.949862)  can0  1B40080A   [5]  1E BC 55 5B D7
 (001.950295)  can0  1B40090A   [5]  1E BB FF 1A E0
 (001.950742)  can0  1B400A0A   [5]  1E BC 55 5B D7
 (001.951191)  can0  1B400B0A   [5]  1E BB FF 1A E0
 (002.310514)  can0  1B400100   [8]  24 82 22 1A 00 00 33 40
 (002.311033)  can0  1B400200   [8]  24 82 22 1A 00 00 32 D2
 (002.311585)  can0  1B400300   [8]  24 82 22 1A 00 00 0C CD
 (002.510125)  can0  1B400400   [8]  24 82 22 1A 00 00 0C D1
 (002.510671)  can0  1B400500   [8]  24 82 22 1A 00 00 0C D0
 (002.511229)  can0  1B400600   [8]  24 82 22 1A 00 00 00 2D
 (002.709934)  can0  1B400700   [8]  24 82 22 1A 00 00 0C D1
 (002.710468)  can0  1B400800   [8]  24 82 22 3A 00 00 00 1A
 (002.710907)  can0  1B400900   [5]  1E 41 C8 CC CD
 (002.909613)  can0  1B400A00   [5]  1E 42 88 3E 70
 (002.921052)  can0  1B40010A   [5]  1E 41 51 9D B2
 (002.921497)  can0  1B40020A   [5]  1E 41 48 56 9B
 (002.921944)  can0  1B40030A   [5]  1E BB F0 4C 04
 (002.922385)  can0  1B40040A   [5]  1E B2 93 74 BC
 (002.922827)  can0  1B40050A   [5]  1E C2 86 40 84
 (002.923273)  can0  1B40060A   [5]  1E 41 AE 88 6D
 (002.923558)  can0  1B40070A   [1]  3D
 (002.924035)  can0  1B40080A   [5]  1E BC 55 CB C6
 (002.924471)  can0  1B40090A   [5]  1E BB FF 1A E0
 (002.924917)  can0  1B400A0A   [5]  1E BC 55 CB C6
 (002.925366)  can0  1B400B0A   [5]  1E BB FF 1A E0
 (003.309474)  can0  1B400100   [8]  24 82 22 1A 00 00 33 40
 (003.309990)  can0  1B400200   [8]  24 82 22 1A 00 00 32 C3
 (003.310553)  can0  1B400300   [8]  24 82 22 1A 00 00 0C CD
 (003.509087)  can0  1B400400   [8]  24 82 22 1A 00 00 0C D1
 (003.509630)  can0  1B400500   [8]  24 82 22 1A 00 00 0C CF
 (003.510185)  can0  1B400600   [8]  24 82 22 1A 00 00 00 2D
 (003.708893)  can0  1B400700   [8]  24 82 22 1A 00 00 0C D1
 (003.709426)  can0  1B400800   [8]  24 82 22 3A 00 00 00 11
 (003.709864)  can0  1B400900   [5]  1E 41 C8 CC CD
 (003.894627)  can0  1B40010A   [5]  1E 41 52 24 DD
 (003.895057)  can0  1B40020A   [5]  1E 41 48 F1 14
 (003.895496)  can0  1B40030A   [5]  1E BB F0 4C 04
 (003.895933)  can0  1B40040A   [5]  1E B2 93 74 BC
 (003.896374)  can0  1B40050A   [5]  1E C2 86 40 84
 (003.896819)  can0  1B40060A   [5]  1E 41 AE C8 9B
 (003.897109)  can0  1B40070A   [1]  3D
 (003.897587)  can0  1B40080A   [5]  1E BC 56 3B FD
 (003.898036)  can0  1B40090A   [5]  1E BB FF 1A E0
 (003.898491)  can0  1B400A0A   [5]  1E BC 56 3B FD
 (003.898939)  can0  1B400B0A   [5]  1E BB FF 1A E0
 (003.904312)  can0  1B400A00   [5]  1E 42 88 3E 6F
 (004.308459)  can0  1B400100   [8]  24 82 22 1A 00 00 33 40
 (004.308986)  can0  1B400200   [8]  24 82 22 1A 00 00 32 A6
 (004.309532)  can0  1B400300   [8]  24 82 22 1A 00 00 0C CD
 (004.508081)  can0  1B400400   [8]  24 82 22 1A 00 00 0C D1
 (004.508629)  can0  1B400500   [8]  24 82 22 1A 00 00 0C D0
 (004.509188)  can0  1B400600   [8]  24 82 22 1A 00 00 00 2D
 (004.707877)  can0  1B400700   [8]  24 82 22 1A 00 00 0C D1
 (004.708442)  can0  1B400800   [8]  24 82 22 3A 00 00 00 1A
 (004.708886)  can0  1B400900   [5]  1E 41 C8 CC CD
 (004.868051)  can0  1B40010A   [5]  1E 41 51 43 96
 (004.868471)  can0  1B40020A   [5]  1E 41 47 6E E3
 (004.868903)  can0  1B40030A   [5]  1E BC B4 39 67
 (004.869342)  can0  1B40040A   [5]  1E BC B4 39 61
 (004.869785)  can0  1B40050A   [5]  1E C2 8F 60 F2
 (004.870234)  can0  1B40060A   [5]  1E 41 AD 36 BC
 (004.870540)  can0  1B40070A   [1]  3D
 (004.870981)  can0  1B40080A   [5]  1E BC 57 8B 3A
 (004.871426)  can0  1B40090A   [5]  1E BC 00 DC AD
 (004.871865)  can0  1B400A0A   [5]  1E BC 57 8B 3A
 (004.872310)  can0  1B400B0A   [5]  1E BC 00 DC AD
 (004.877733)  can0  1B400A00   [5]  1E 42 88 3E 6F
 (005.307493)  can0  1B400100   [8]  24 82 22 1A 00 00 33 40
 (005.308028)  can0  1B400200   [8]  24 82 22 1A 00 00 32 C1
 (005.308588)  can0  1B400300   [8]  24 82 22 1A 00 00 0C CD
 (005.507117)  can0  1B400400   [8]  24 82 22 1A 00 00 0C D1
 (005.507676)  can0  1B400500   [8]  24 82 22 1A 00 00 0C D0
 (005.508224)  can0  1B400600   [8]  24 82 22 1A 00 00 00 2D
 (005.706970)  can0  1B400700   [8]  24 82 22 1A 00 00 0C D1
 (005.707488)  can0  1B400800   [8]  24 82 22 3A 00 00 00 1A
 (005.707931)  can0  1B400900   [5]  1E 41 C8 CC CD
 (005.840994)  can0  1B40010A   [5]  1E 41 51 F7 CF
 (005.841419)  can0  1B40020A   [5]  1E 41 48 A3 D7
 (005.841870)  can0  1B40030A   [5]  1E 3B F0 4D 96
 (005.842301)  can0  1B40040A   [5]  1E B2 93 74 BC
 (005.842760)  can0  1B40050A   [5]  1E C2 83 C3 7E
 (005.843205)  can0  1B40060A   [5]  1E 41 AE CD 31
 (005.843491)  can0  1B40070A   [1]  3D
 (005.843965)  can0  1B40080A   [5]  1E BC 57 1B 1A
 (005.844400)  can0  1B40090A   [5]  1E BC 00 DC AD
 (005.844844)  can0  1B400A0A   [5]  1E BC 57 1B 1A
 (005.845284)  can0  1B400B0A   [5]  1E BC 00 DC AD
 (005.850698)  can0  1B400A00   [5]  1E 42 88 3E 6E
 (006.306548)  can0  1B400100   [8]  24 82 22 1A 00 00 33 40
 (006.307125)  can0  1B400200   [8]  24 82 22 1A 00 00 32 A8
 (006.307634)  can0  1B400300   [8]  24 82 22 1A 00 00 0C CD
 (006.506168)  can0  1B400400   [8]  24 82 22 1A 00 00 0C D1
 (006.506719)  can0  1B400500   [8]  24 82 22 1A 00 00 0C CF
 (006.507296)  can0  1B400600   [8]  24 82 22 1A 00 00 00 2D
 (006.706007)  can0  1B400700   [8]  24 82 22 1A 00 00 0C D1
 (006.706533)  can0  1B400800   [8]  24 82 22 3A 00 00 00 1A
 (006.707049)  can0  1B400900   [5]  1E 41 C8 CC CD
 (006.814417)  can0  1B40010A   [5]  1E 41 51 CA C1
 (006.814838)  can0  1B40020A   [5]  1E 41 48 09 5D
 (006.815276)  can0  1B40030A   [5]  1E BC 70 4B E5
 (006.815719)  can0  1B40040A   [5]  1E B2 93 74 BC
 (006.816166)  can0  1B40050A   [5]  1E C2 8A 70 E5
 (006.816596)  can0  1B40060A   [5]  1E 41 AD E3 D2
 (006.816896)  can0  1B40070A   [1]  3D
 (006.817347)  can0  1B40080A   [5]  1E BC 57 FB 28
 (006.817798)  can0  1B40090A   [5]  1E BC 00 DC AD
 (006.818264)  can0  1B400A0A   [5]  1E BC 57 FB 28
 (006.818703)  can0  1B400B0A   [5]  1E BC 00 DC AD
 (006.824093)  can0  1B400A00   [5]  1E 42 88 3E 6E
 (007.305614)  can0  1B400100   [8]  24 82 22 1A 00 00 33 40
 (007.306135)  can0  1B400200   [8]  24 82 22 1A 00 00 32 C7
 (007.306690)  can0  1B400300   [8]  24 82 22 1A 00 00 0C CD
 (007.505242)  can0  1B400400   [8]  24 82 22 1A 00 00 0C D1
 (007.505793)  can0  1B400500   [8]  24 82 22 1A 00 00 0C D0
 (007.506350)  can0  1B400600   [8]  24 82 22 1A 00 00 00 2D
 (007.705061)  can0  1B400700   [8]  24 82 22 1A 00 00 0C D1
 (007.705600)  can0  1B400800   [8]  24 82 22 3A 00 00 00 1A
 (007.706038)  can0  1B400900   [5]  1E 41 C8 CC CD
 (007.787915)  can0  1B40010A   [5]  1E 41 51 CA C1
 (007.788339)  can0  1B40020A   [5]  1E 41 48 56 9B
 (007.788794)  can0  1B40030A   [5]  1E BB F0 4C 04
 (007.789235)  can0  1B40040A   [5]  1E BB F0 4B EC
 (007.789671)  can0  1B40050A   [5]  1E C2 8A 72 C9
 (007.790119)  can0  1B40060A   [5]  1E 41 AE 03 C8
 (007.790404)  can0  1B40070A   [1]  3D
 (007.790880)  can0  1B40080A   [5]  1E BC 58 6B 2F
 (007.791314)  can0  1B40090A   [5]  1E BC 01 4C B4
 (007.791755)  can0  1B400A0A   [5]  1E BC 58 6B 2F
 (007.792195)  can0  1B400B0A   [5]  1E BC 01 4C B4
 (007.797628)  can0  1B400A00   [5]  1E 42 88 3E 6D
 (008.304662)  can0  1B400100   [8]  24 82 22 1A 00 00 33 40
 (008.305187)  can0  1B400200   [8]  24 82 22 1A 00 00 32 A8
 (008.305739)  can0  1B400300   [8]  24 82 22 1A 00 00 0C CD
 (008.504290)  can0  1B400400   [8]  24 82 22 1A 00 00 0C D2
 (008.504844)  can0  1B400500   [8]  24 82 22 1A 00 00 0C D0
 (008.505403)  can0  1B400600   [8]  24 82 22 1A 00 00 00 2D
 (008.704100)  can0  1B400700   [8]  24 82 22 1A 00 00 0C D1
 (008.704644)  can0  1B400800   [8]  24 82 22 3A 00 00 00 1A
 (008.705082)  can0  1B400900   [5]  1E 41 C8 CC CD
 (008.761219)  can0  1B40010A   [5]  1E 41 52 7E FA
 (008.761641)  can0  1B40020A   [5]  1E 41 49 8B 8F
 (008.762089)  can0  1B40030A   [5]  1E 3C 70 4C AE
 (008.762538)  can0  1B40040A   [5]  1E 3C 70 4C BA
 (008.762982)  can0  1B40050A   [5]  1E C2 82 A2 91
 (008.763434)  can0  1B40060A   [5]  1E 41 AF D3 7C
 (008.763719)  can0  1B40070A   [1]  3D
 (008.764194)  can0  1B40080A   [5]  1E BC 57 8A 60
 (008.764639)  can0  1B40090A   [5]  1E BC 00 6B E5
 (008.765082)  can0  1B400A0A   [5]  1E BC 57 8A 60
 (008.765545)  can0  1B400B0A   [5]  1E BC 00 6B E5
 (008.770937)  can0  1B400A00   [5]  1E 42 88 3E 6D
 (009.303686)  can0  1B400100   [8]  24 82 22 1A 00 00 33 40
 (009.304206)  can0  1B400200   [8]  24 82 22 1A 00 00 32 C3
 (009.304761)  can0  1B400300   [8]  24 82 22 1A 00 00 0C CD
 (009.503298)  can0  1B400400   [8]  24 82 22 1A 00 00 0C D1
 (009.503852)  can0  1B400500   [8]  24 82 22 1A 00 00 0C D0
 (009.504410)  can0  1B400600   [8]  24 82 22 1A 00 00 00 2D
 (009.703121)  can0  1B400700   [8]  24 82 22 1A 00 00 0C D1
 (009.703651)  can0  1B400800   [8]  24 82 22 3A 00 00 00 1A
 (009.704093)  can0  1B400900   [5]  1E 41 C8 CC CD
 (009.735358)  can0  1B40010A   [5]  1E 41 51 CA C1
 (009.735765)  can0  1B40020A   [5]  1E 41 48 A3 D7
 (009.736200)  can0  1B40030A   [5]  1E B2 F5 C2 8F
 (009.736638)  can0  1B40040A   [5]  1E B2 93 74 BC
 (009.737116)  can0  1B40050A   [5]  1E C2 8A 7C 39
 (009.737544)  can0  1B40060A   [5]  1E 41 AE 6C F3
 (009.737831)  can0  1B40070A   [1]  3D
 (009.738289)  can0  1B40080A   [5]  1E BC 57 8A 60
 (009.738736)  can0  1B40090A   [5]  1E BC 00 6B E5
 (009.739181)  can0  1B400A0A   [5]  1E BC 57 8A 60
 (009.739633)  can0  1B400B0A   [5]  1E BC 00 6B E5
 (009.745017)  can0  1B400A00   [5]  1E 42 88 3E 6C
 (010.302701)  can0  1B400100   [8]  24 82 22 1A 00 00 33 40
 (010.303216)  can0  1B400200   [8]  24 82 22 1A 00 00 32 A5
 (010.303764)  can0  1B400300   [8]  24 82 22 1A 00 00 0C CD
 (010.502312)  can0  1B400400   [8]  24 82 22 1A 00 00 0C D1
 (010.502872)  can0  1B400500   [8]  24 82 22 1A 00 00 0C CF
 (010.503423)  can0  1B400600   [8]  24 82 22 1A 00 00 00 2D
 (010.702128)  can0  1B400700   [8]  24 82 22 1A 00 00 0C D1
 (010.702668)  can0  1B400800   [8]  24 82 22 3A 00 00 00 1A
 (010.703108)  can0  1B400900   [5]  1E 41 C8 CC CD
 (010.708786)  can0  1B40010A   [5]  1E 41 51 F7 CF
 (010.709224)  can0  1B40020A   [5]  1E 41 48 56 9B
 (010.709681)  can0  1B40030A   [5]  1E BB F0 4C 04
 (010.710132)  can0  1B40040A   [5]  1E BB F0 4B EC
 (010.710571)  can0  1B40050A   [5]  1E C2 8A 74 AD
 (010.711020)  can0  1B40060A   [5]  1E 41 AE 63 CB
 (010.711305)  can0  1B40070A   [1]  3D
 (010.711779)  can0  1B40080A   [5]  1E BC 57 FA 7F
 (010.712229)  can0  1B40090A   [5]  1E BC 00 DC 04
 (010.712676)  can0  1B400A0A   [5]  1E BC 57 FA 7F
 (010.713127)  can0  1B400B0A   [5]  1E BC 00 DC 04
 (010.718509)  can0  1B400A00   [5]  1E 42 88 3E 6C
 (011.301678)  can0  1B400100   [8]  24 82 22 1A 00 00 33 40
 (011.302200)  can0  1B400200   [8]  24 82 22 1A 00 00 32 C3
 (011.302753)  can0  1B400300   [8]  24 82 22 1A 00 00 0C CD
 (011.501278)  can0  1B400400   [8]  24 82 22 1A 00 00 0C D1
 (011.501833)  can0  1B400500   [8]  24 82 22 1A 00 00 0C D0
 (011.502390)  can0  1B400600   [8]  24 82 22 1A 00 00 00 2D
 (011.682381)  can0  1B40010A   [5]  1E 41 51 F7 CF
 (011.682798)  can0  1B40020A   [5]  1E 41 48 A3 D7
 (011.683242)  can0  1B40030A   [5]  1E BB F0 4C 04
 (011.683696)  can0  1B40040A   [5]  1E B2 93 74 BC
 (011.684136)  can0  1B40050A   [5]  1E C2 84 F1 4B
 (011.684587)  can0  1B40060A   [5]  1E 41 AE 7F 44
 (011.684874)  can0  1B40070A   [1]  3D
 (011.685337)  can0  1B40080A   [5]  1E BC 58 6A 9E
 (011.685783)  can0  1B40090A   [5]  1E BC 00 DC 04
 (011.686222)  can0  1B400A0A   [5]  1E BC 58 6A 9E
 (011.686676)  can0  1B400B0A   [5]  1E BC 00 DC 04
 (011.692172)  can0  1B400700   [8]  24 82 22 1A 00 00 0C D1
 (011.692734)  can0  1B400800   [8]  24 82 22 3A 00 00 00 22
 (011.693176)  can0  1B400900   [5]  1E 41 C8 CC CD
 (011.700981)  can0  1B400A00   [5]  1E 42 88 3E 6B
 (012.300645)  can0  1B400100   [8]  24 82 22 1A 00 00 33 40
 (012.301165)  can0  1B400200   [8]  24 82 22 1A 00 00 32 CE
 (012.301719)  can0  1B400300   [8]  24 82 22 1A 00 00 0C CD
 (012.500264)  can0  1B400400   [8]  24 82 22 1A 00 00 0C D1
 (012.500821)  can0  1B400500   [8]  24 82 22 1A 00 00 0C CF
 (012.501368)  can0  1B400600   [8]  24 82 22 1A 00 00 00 2D
 (012.655176)  can0  1B40010A   [5]  1E 41 51 CA C1
 (012.655591)  can0  1B40020A   [5]  1E 41 48 56 9B
 (012.656033)  can0  1B40030A   [5]  1E BC 70 4B E5
 (012.656481)  can0  1B40040A   [5]  1E BB F0 4B EC
 (012.656993)  can0  1B40050A   [5]  1E C2 8A 6F 02
 (012.657384)  can0  1B40060A   [5]  1E 41 AD FF 36
 (012.657682)  can0  1B40070A   [1]  3D
 (012.658135)  can0  1B40080A   [5]  1E BC 59 4A AC
 (012.658586)  can0  1B40090A   [5]  1E BC 01 4C 0B
 (012.659028)  can0  1B400A0A   [5]  1E BC 59 4A AC
 (012.659477)  can0  1B400B0A   [5]  1E BC 01 4C 0B
 (012.664966)  can0  1B400700   [8]  24 82 22 1A 00 00 0C D1
 (012.665532)  can0  1B400800   [8]  24 82 22 3A 00 00 00 1A
 (012.665978)  can0  1B400900   [5]  1E 41 C8 CC CD
 (012.699972)  can0  1B400A00   [5]  1E 42 88 3E 6B
 (013.299685)  can0  1B400100   [8]  24 82 22 1A 00 00 33 40
 (013.300210)  can0  1B400200   [8]  24 82 22 1A 00 00 32 C7
 (013.300767)  can0  1B400300   [8]  24 82 22 1A 00 00 0C CD
 (013.499309)  can0  1B400400   [8]  24 82 22 1A 00 00 0C D1
 (013.499865)  can0  1B400500   [8]  24 82 22 1A 00 00 0C D0
 (013.500422)  can0  1B400600   [8]  24 82 22 1A 00 00 00 2D
 (013.628512)  can0  1B40010A   [5]  1E 41 51 70 A4
 (013.628936)  can0  1B40020A   [5]  1E 41 48 09 5D
 (013.629373)  can0  1B40030A   [5]  1E BC B4 39 67
 (013.629818)  can0  1B40040A   [5]  1E BC 70 4C DF
 (013.630257)  can0  1B40050A   [5]  1E C2 8F 64 A2
 (013.630702)  can0  1B40060A   [5]  1E 41 AD 76 6C
 (013.631009)  can0  1B40070A   [1]  3D
 (013.631455)  can0  1B40080A   [5]  1E BC 5A 9A 31
 (013.631897)  can0  1B40090A   [5]  1E BC 02 2B BA
 (013.632335)  can0  1B400A0A   [5]  1E BC 5A 9A 31
 (013.632775)  can0  1B400B0A   [5]  1E BC 02 2B BA
 (013.638303)  can0  1B400700   [8]  24 82 22 1A 00 00 0C D1
 (013.638871)  can0  1B400800   [8]  24 82 22 3A 00 00 00 22
 (013.639311)  can0  1B400900   [5]  1E 41 C8 CC CD
 (013.699026)  can0  1B400A00   [5]  1E 42 88 3E 6A
 (014.298750)  can0  1B400100   [8]  24 82 22 1A 00 00 33 40
 (014.299281)  can0  1B400200   [8]  24 82 22 1A 00 00 32 DB
 (014.299830)  can0  1B400300   [8]  24 82 22 1A 00 00 0C CD
 (014.498373)  can0  1B400400   [8]  24 82 22 1A 00 00 0C D1
 (014.498922)  can0  1B400500   [8]  24 82 22 1A 00 00 0C CF
 (014.499481)  can0  1B400600   [8]  24 82 22 1A 00 00 00 2D
 (014.602067)  can0  1B40010A   [5]  1E 41 52 24 DD
 (014.602491)  can0  1B40020A   [5]  1E 41 48 A3 D7
 (014.602936)  can0  1B40030A   [5]  1E BB F0 4C 04
 (014.603378)  can0  1B40040A   [5]  1E 3B F0 4B A2
 (014.603821)  can0  1B40050A   [5]  1E C2 84 F1 4B
 (014.604270)  can0  1B40060A   [5]  1E 41 AE BF 6E
 (014.604583)  can0  1B40070A   [1]  3D
 (014.605021)  can0  1B40080A   [5]  1E BC 5B 0A 68
 (014.605474)  can0  1B40090A   [5]  1E BC 01 BB 83
 (014.605917)  can0  1B400A0A   [5]  1E BC 5B 0A 68
 (014.606370)  can0  1B400B0A   [5]  1E BC 01 BB 83
 (014.611861)  can0  1B400700   [8]  24 82 22 1A 00 00 0C D1
 (014.612431)  can0  1B400800   [8]  24 82 22 3A 00 00 00 1A
 (014.612872)  can0  1B400900   [5]  1E 41 C8 CC CD
 (014.698084)  can0  1B400A00   [5]  1E 42 88 3E 6A
 (015.297791)  can0  1B400100   [8]  24 82 22 1A 00 00 33 40
 (015.298326)  can0  1B400200   [8]  24 82 22 1A 00 00 32 AB
 (015.298873)  can0  1B400300   [8]  24 82 22 1A 00 00 0C CD
 (015.497412)  can0  1B400400   [8]  24 82 22 1A 00 00 0C D1
 (015.497968)  can0  1B400500   [8]  24 82 22 1A 00 00 0C D0
 (015.498528)  can0  1B400600   [8]  24 82 22 1A 00 00 00 2D
 (015.575846)  can0  1B40010A   [5]  1E 41 51 9D B2
 (015.576273)  can0  1B40020A   [5]  1E 41 48 09 5D
 (015.576721)  can0  1B40030A   [5]  1E BC B4 39 67
 (015.577162)  can0  1B40040A   [5]  1E BC 70 4C DF
 (015.577597)  can0  1B40050A   [5]  1E C2 8B FB AC
 (015.578051)  can0  1B40060A   [5]  1E 41 AD 7A FA
 (015.578363)  can0  1B40070A   [1]  3D
 (015.578800)  can0  1B40080A   [5]  1E BC 5C 5A 36
 (015.579245)  can0  1B40090A   [5]  1E BC 02 9B 62
 (015.579682)  can0  1B400A0A   [5]  1E BC 5C 5A 36
 (015.580121)  can0  1B400B0A   [5]  1E BC 02 9B 62
 (015.585631)  can0  1B400700   [8]  24 82 22 1A 00 00 0C D1
 (015.586197)  can0  1B400800   [8]  24 82 22 3A 00 00 00 1A
 (015.586642)  can0  1B400900   [5]  1E 41 C8 CC CD
 (015.697113)  can0  1B400A00   [5]  1E 42 88 3E 69
 (016.296810)  can0  1B400100   [8]  24 82 22 1A 00 00 33 40
 (016.297326)  can0  1B400200   [8]  24 82 22 1A 00 00 32 A5
 (016.297906)  can0  1B400300   [8]  24 82 22 1A 00 00 0C CD
 (016.496439)  can0  1B400400   [8]  24 82 22 1A 00 00 0C D1
 (016.497042)  can0  1B400500   [8]  24 82 22 1A 00 00 0C CF
 (016.497540)  can0  1B400600   [8]  24 82 22 1A 00 00 00 2D
 (016.549548)  can0  1B40010A   [5]  1E 41 51 CA C1
 (016.549950)  can0  1B40020A   [5]  1E 41 48 56 9B
 (016.550413)  can0  1B40030A   [5]  1E BB F0 4C 04
 (016.550865)  can0  1B40040A   [5]  1E BB F0 4B EC
 (016.551302)  can0  1B40050A   [5]  1E C2 8A 74 AD
 (016.551748)  can0  1B40060A   [5]  1E 41 AD E3 D2
 (016.552031)  can0  1B40070A   [1]  3D
 (016.552511)  can0  1B40080A   [5]  1E BC 5C CA 3D
 (016.552939)  can0  1B40090A   [5]  1E BC 03 0B 69
 (016.553380)  can0  1B400A0A   [5]  1E BC 5C CA 3D
 (016.553824)  can0  1B400B0A   [5]  1E BC 03 0B 69
 (016.559351)  can0  1B400700   [8]  24 82 22 1A 00 00 0C D1
 (016.559893)  can0  1B400800   [8]  24 82 22 3A 00 00 00 22
 (016.560336)  can0  1B400900   [5]  1E 41 C8 CC CD
 (016.696120)  can0  1B400A00   [5]  1E 42 88 3E 68
 (017.295767)  can0  1B400100   [8]  24 82 22 1A 00 00 33 40
 (017.296293)  can0  1B400200   [8]  24 82 22 1A 00 00 32 C5
 (017.296851)  can0  1B400300   [8]  24 82 22 1A 00 00 0C CD
 (017.495401)  can0  1B400400   [8]  24 82 22 1A 00 00 0C D1
 (017.495917)  can0  1B400500   [8]  24 82 22 1A 00 00 0C CF
 (017.496476)  can0  1B400600   [8]  24 82 22 1A 00 00 00 2D
 (017.523009)  can0  1B40010A   [5]  1E 41 51 CA C1
 (017.523419)  can0  1B40020A   [5]  1E 41 48 56 9B
 (017.523871)  can0  1B40030A   [5]  1E BC 70 4B E5
 (017.524313)  can0  1B40040A   [5]  1E B2 93 74 BC
 (017.524746)  can0  1B40050A   [5]  1E C2 88 F5 D6
 (017.525200)  can0  1B40060A   [5]  1E 41 AE 5F 38
 (017.525488)  can0  1B40070A   [1]  3D
 (017.525963)  can0  1B40080A   [5]  1E BC 5D AA 4B
 (017.526398)  can0  1B40090A   [5]  1E BC 03 0B 69
 (017.526843)  can0  1B400A0A   [5]  1E BC 5D AA 4B
 (017.527280)  can0  1B400B0A   [5]  1E BC 03 0B 69
 (017.532799)  can0  1B400700   [8]  24 82 22 1A 00 00 0C D1
 (017.533361)  can0  1B400800   [8]  24 82 22 3A 00 00 00 1A
 (017.533804)  can0  1B400900   [5]  1E 41 C8 CC CD
 (017.695067)  can0  1B400A00   [5]  1E 42 88 3E 68
 (018.294711)  can0  1B400100   [8]  24 82 22 1A 00 00 33 40
 (018.295238)  can0  1B400200   [8]  24 82 22 1A 00 00 32 A6
 (018.295787)  can0  1B400300   [8]  24 82 22 1A 00 00 0C CD
 (018.494343)  can0  1B400400   [8]  24 82 22 1A 00 00 0C D1
 (018.494885)  can0  1B400500   [8]  24 82 22 1A 00 00 0C CF
 (018.495442)  can0  1B400600   [8]  24 82 22 1A 00 00 00 2D
 (018.495881)  can0  1B40010A   [5]  1E 41 52 24 DD
 (018.496327)  can0  1B40020A   [5]  1E 41 48 A3 D7
 (018.496777)  can0  1B40030A   [5]  1E BB F0 4C 04
 (018.497214)  can0  1B40040A   [5]  1E B2 93 74 BC
 (018.497662)  can0  1B40050A   [5]  1E C2 83 B5 D1
 (018.498123)  can0  1B40060A   [5]  1E 41 AE 9F 56
 (018.498407)  can0  1B40070A   [1]  3D
 (018.498892)  can0  1B40080A   [5]  1E BC 5E 1A 82
 (018.499322)  can0  1B40090A   [5]  1E BC 03 0B 69
 (018.499758)  can0  1B400A0A   [5]  1E BC 5E 1A 82
 (018.500203)  can0  1B400B0A   [5]  1E BC 03 0B 69
 (018.505704)  can0  1B400700   [8]  24 82 22 1A 00 00 0C D1
 (018.506272)  can0  1B400800   [8]  24 82 22 3A 00 00 00 1A
 (018.506714)  can0  1B400900   [5]  1E 41 C8 CC CD
 (018.694034)  can0  1B400A00   [5]  1E 42 88 3E 67
 (019.293674)  can0  1B400100   [8]  24 82 22 1A 00 00 33 40
 (019.294202)  can0  1B400200   [8]  24 82 22 1A 00 00 32 C5
 (019.294752)  can0  1B400300   [8]  24 82 22 1A 00 00 0C CD
 (019.469321)  can0  1B40010A   [5]  1E 41 51 F7 CF
 (019.469745)  can0  1B40020A   [5]  1E 41 48 A3 D7
 (019.470187)  can0  1B40030A   [5]  1E BB F0 4C 04
 (019.470624)  can0  1B40040A   [5]  1E B2 93 74 BC
 (019.471068)  can0  1B40050A   [5]  1E C2 8A 7E 1C
 (019.471517)  can0  1B40060A   [5]  1E 41 AE CD 31
 (019.471824)  can0  1B40070A   [1]  3D
 (019.472273)  can0  1B40080A   [5]  1E BC 5E 8A A1
 (019.472713)  can0  1B40090A   [5]  1E BC 03 0B 69
 (019.473153)  can0  1B400A0A   [5]  1E BC 5E 8A A1
 (019.473598)  can0  1B400B0A   [5]  1E BC 03 0B 69
 (019.479112)  can0  1B400400   [8]  24 82 22 1A 00 00 0C D1
 (019.479678)  can0  1B400500   [8]  24 82 22 1A 00 00 0C CF
 (019.480239)  can0  1B400600   [8]  24 82 22 1A 00 00 00 2D
 (019.493306)  can0  1B400700   [8]  24 82 22 1A 00 00 0C D1
 (019.493840)  can0  1B400800   [8]  24 82 22 3A 00 00 00 1A
 (019.494281)  can0  1B400900   [5]  1E 41 C8 CC CD
 (019.693002)  can0  1B400A00   [5]  1E 42 88 3E 67
 (020.292682)  can0  1B400100   [8]  24 82 22 1A 00 00 33 40
 (020.293186)  can0  1B400200   [8]  24 82 22 1A 00 00 32 D5
 (020.293741)  can0  1B400300   [8]  24 82 22 1A 00 00 0C CD
 (020.442964)  can0  1B40010A   [5]  1E 41 52 24 DD
 (020.443377)  can0  1B40020A   [5]  1E 41 48 A3 D7
 (020.443814)  can0  1B40030A   [5]  1E B2 F5 C2 8F
 (020.444243)  can0  1B40040A   [5]  1E B2 93 74 BC
 (020.444691)  can0  1B40050A   [5]  1E C2 89 01 40
 (020.445136)  can0  1B40060A   [5]  1E 41 AE 6C F3
 (020.445438)  can0  1B40070A   [1]  3D
 (020.445892)  can0  1B40080A   [5]  1E BC 5E 8A A1
 (020.446332)  can0  1B40090A   [5]  1E BC 03 0B 69
 (020.446770)  can0  1B400A0A   [5]  1E BC 5E 8A A1
 (020.447217)  can0  1B400B0A   [5]  1E BC 03 0B 69
 (020.452729)  can0  1B400400   [8]  24 82 22 1A 00 00 0C D1
 (020.453293)  can0  1B400500   [8]  24 82 22 1A 00 00 0C CF
 (020.453856)  can0  1B400600   [8]  24 82 22 1A 00 00 00 2D
 (020.492288)  can0  1B400700   [8]  24 82 22 1A 00 00 0C D1
 (020.492831)  can0  1B400800   [8]  24 82 22 3A 00 00 00 1A
 (020.493267)  can0  1B400900   [5]  1E 41 C8 CC CD
 (020.691981)  can0  1B400A00   [5]  1E 42 88 3E 66
 (021.291663)  can0  1B400100   [8]  24 82 22 1A 00 00 33 40
 (021.292196)  can0  1B400200   [8]  24 82 22 1A 00 00 32 C3
 (021.292755)  can0  1B400300   [8]  24 82 22 1A 00 00 0C CD
 (021.416481)  can0  1B40010A   [5]  1E 41 51 70 A4
 (021.416895)  can0  1B40020A   [5]  1E 41 48 09 5D
 (021.417330)  can0  1B40030A   [5]  1E BC 70 4B E5
 (021.417785)  can0  1B40040A   [5]  1E BC 70 4C DF
 (021.418230)  can0  1B40050A   [5]  1E C2 8A 70 E5
 (021.418689)  can0  1B40060A   [5]  1E 41 AD A3 F9
 (021.418959)  can0  1B40070A   [1]  3D
 (021.419422)  can0  1B40080A   [5]  1E BC 5F 6A 4F
 (021.419878)  can0  1B40090A   [5]  1E BC 03 EB 18
 (021.420333)  can0  1B400A0A   [5]  1E BC 5F 6A 4F
 (021.420779)  can0  1B400B0A   [5]  1E BC 03 EB 18
 (021.426261)  can0  1B400400   [8]  24 82 22 1A 00 00 0C D1
 (021.426830)  can0  1B400500   [8]  24 82 22 1A 00 00 0C D0
 (021.427394)  can0  1B400600   [8]  24 82 22 1A 00 00 00 2D
 (021.491313)  can0  1B400700   [8]  24 82 22 1A 00 00 0C D1
 (021.491839)  can0  1B400800   [8]  24 82 22 3A 00 00 00 1A
 (021.492282)  can0  1B400900   [5]  1E 41 C8 CC CD
 (021.691003)  can0  1B400A00   [5]  1E 42 88 3E 66
 (022.290676)  can0  1B400100   [8]  24 82 22 1A 00 00 33 40
 (022.291205)  can0  1B400200   [8]  24 82 22 1A 00 00 32 94
 (022.291755)  can0  1B400300   [8]  24 82 22 1A 00 00 0C CD
 (022.328738)  can0  1B400400   [8]  24 82 22 1A 00 00 0C D1
 (022.329286)  can0  1B400500   [8]  24 82 22 1A 00 00 0C D0
 (022.329841)  can0  1B400600   [8]  24 82 22 1A 00 00 00 2D
 (022.390542)  can0  1B40010A   [5]  1E 41 51 CA C1
 (022.390940)  can0  1B40020A   [5]  1E 41 48 56 9B
 (022.391380)  can0  1B40030A   [5]  1E BC 70 4B E5
 (022.391826)  can0  1B40040A   [5]  1E BC 70 4C DF
 (022.392270)  can0  1B40050A   [5]  1E C2 88 F0 1F
 (022.392721)  can0  1B40060A   [5]  1E 41 AD FA A5
 (022.393017)  can0  1B40070A   [1]  3D
 (022.393469)  can0  1B40080A   [5]  1E BC 60 4A 5D
 (022.393915)  can0  1B40090A   [5]  1E BC 04 CB 27
 (022.394363)  can0  1B400A0A   [5]  1E BC 60 4A 5D
 (022.394807)  can0  1B400B0A   [5]  1E BC 04 CB 27
 (022.400311)  can0  1B400700   [8]  24 82 22 1A 00 00 0C D1
 (022.400880)  can0  1B400800   [8]  24 82 22 3A 00 00 00 22
 (022.401333)  can0  1B400900   [5]  1E 41 C8 00 00
 (022.490200)  can0  1B400A00   [5]  1E 42 88 3E 65
 (023.289626)  can0  1B400100   [8]  24 82 22 1A 00 00 33 40
 (023.290155)  can0  1B400200   [8]  24 82 22 1A 00 00 32 C4
 (023.290703)  can0  1B400300   [8]  24 82 22 1A 00 00 0C CD
 (023.306561)  can0  1B400400   [8]  24 82 22 1A 00 00 0C D1
 (023.307147)  can0  1B400500   [8]  24 82 22 1A 00 00 0C D0
 (023.307692)  can0  1B400600   [8]  24 82 22 1A 00 00 00 2D
 (023.364039)  can0  1B40010A   [5]  1E 41 51 70 A4
 (023.364462)  can0  1B40020A   [5]  1E 41 48 56 9B
 (023.364916)  can0  1B40030A   [5]  1E BC 70 4B E5
 (023.365351)  can0  1B40040A   [5]  1E B2 93 74 BC
 (023.365783)  can0  1B40050A   [5]  1E C2 8D A9 D4
 (023.366227)  can0  1B40060A   [5]  1E 41 AD 64 37
 (023.366515)  can0  1B40070A   [1]  3D
 (023.367049)  can0  1B40080A   [5]  1E BC 61 2A 0B
 (023.367413)  can0  1B40090A   [5]  1E BC 04 CB 27
 (023.367880)  can0  1B400A0A   [5]  1E BC 61 2A 0B
 (023.368318)  can0  1B400B0A   [5]  1E BC 04 CB 27
 (023.373829)  can0  1B400700   [8]  24 82 22 1A 00 00 0C D1
 (023.374390)  can0  1B400800   [8]  24 82 22 3A 00 00 00 22
 (023.374836)  can0  1B400900   [5]  1E 41 C8 CC CD
 (023.489152)  can0  1B400A00   [5]  1E 42 88 3E 65
 (024.288580)  can0  1B400100   [8]  24 82 22 1A 00 00 33 40
 (024.289107)  can0  1B400200   [8]  24 82 22 1A 00 00 32 A6
 (024.289658)  can0  1B400300   [8]  24 82 22 1A 00 00 0C CD
 (024.337536)  can0  1B40010A   [5]  1E 41 51 9D B2
 (024.337953)  can0  1B40020A   [5]  1E 41 48 56 9B
 (024.338423)  can0  1B40030A   [5]  1E BC 70 4B E5
 (024.338868)  can0  1B40040A   [5]  1E BB F0 4B EC
 (024.339304)  can0  1B40050A   [5]  1E C2 87 8B E5
 (024.339739)  can0  1B40060A   [5]  1E 41 AD BF 53
 (024.340023)  can0  1B40070A   [1]  3D
 (024.340489)  can0  1B40080A   [5]  1E BC 62 09 E9
 (024.340925)  can0  1B40090A   [5]  1E BC 05 3B 16
 (024.341383)  can0  1B400A0A   [5]  1E BC 62 09 E9
 (024.341824)  can0  1B400B0A   [5]  1E BC 05 3B 16
 (024.347346)  can0  1B400400   [8]  24 82 22 1A 00 00 0C D1
 (024.347891)  can0  1B400500   [8]  24 82 22 1A 00 00 0C D0
 (024.348454)  can0  1B400600   [8]  24 82 22 1A 00 00 00 2D
 (024.488209)  can0  1B400700   [8]  24 82 22 1A 00 00 0C D1
 (024.488743)  can0  1B400800   [8]  24 82 22 3A 00 00 00 1A
 (024.489183)  can0  1B400900   [5]  1E 41 C8 CC CD
 (024.687891)  can0  1B400A00   [5]  1E 42 88 3E 64
 (025.287546)  can0  1B400100   [8]  24 82 22 1A 00 00 33 40
 (025.288072)  can0  1B400200   [8]  24 82 22 1A 00 00 32 B3
 (025.288623)  can0  1B400300   [8]  24 82 22 1A 00 00 0C CD
 (025.310359)  can0  1B40010A   [5]  1E 41 51 CA C1
 (025.310772)  can0  1B40020A   [5]  1E 41 48 56 9B
 (025.311225)  can0  1B40030A   [5]  1E BC 70 4B E5
 (025.311676)  can0  1B40040A   [5]  1E BB F0 4B EC
 (025.312122)  can0  1B40050A   [5]  1E C2 8B FF 6D
 (025.312572)  can0  1B40060A   [5]  1E 41 AD BF 53
 (025.312857)  can0  1B40070A   [1]  3D
 (025.313335)  can0  1B40080A   [5]  1E BC 62 E9 F7
 (025.313774)  can0  1B40090A   [5]  1E BC 05 AB 1D
 (025.314223)  can0  1B400A0A   [5]  1E BC 62 E9 F7
 (025.314663)  can0  1B400B0A   [5]  1E BC 05 AB 1D
 (025.320167)  can0  1B400400   [8]  24 82 22 1A 00 00 0C D1
 (025.320715)  can0  1B400500   [8]  24 82 22 1A 00 00 0C D0
 (025.321277)  can0  1B400600   [8]  24 82 22 1A 00 00 00 2D
 (025.487154)  can0  1B400700   [8]  24 82 22 1A 00 00 0C D1
 (025.487692)  can0  1B400800   [8]  24 82 22 3A 00 00 00 1A
 (025.488136)  can0  1B400900   [5]  1E 41 C8 CC CD
 (025.686813)  can0  1B400A00   [5]  1E 42 88 3E 64
 (026.283819)  can0  1B40010A   [5]  1E 41 51 9D B2
 (026.284219)  can0  1B40020A   [5]  1E 41 48 09 5D
 (026.284667)  can0  1B40030A   [5]  1E BC 70 4B E5
 (026.285119)  can0  1B40040A   [5]  1E BB F0 4B EC
 (026.285553)  can0  1B40050A   [5]  1E C2 8A 70 E5
 (026.286006)  can0  1B40060A   [5]  1E 41 AE 5F 38
 (026.286317)  can0  1B40070A   [1]  3D
 (026.286757)  can0  1B40080A   [5]  1E BC 63 C9 D5
 (026.287197)  can0  1B40090A   [5]  1E BC 06 1B 0C
 (026.287656)  can0  1B400A0A   [5]  1E BC 63 C9 D5
 (026.288101)  can0  1B400B0A   [5]  1E BC 06 1B 0C
 (026.293740)  can0  1B400100   [8]  24 82 22 1A 00 00 33 40
 (026.294291)  can0  1B400200   [8]  24 82 22 1A 00 00 32 DD
 (026.294856)  can0  1B400300   [8]  24 82 22 1A 00 00 0C CD
 (026.486084)  can0  1B400400   [8]  24 82 22 1A 00 00 0C D1
 (026.486655)  can0  1B400500   [8]  24 82 22 1A 00 00 0C D0
 (026.487211)  can0  1B400600   [8]  24 82 22 1A 00 00 00 2D
 (026.685896)  can0  1B400700   [8]  24 82 22 1A 00 00 0C D1
 (026.686438)  can0  1B400800   [8]  24 82 22 3A 00 00 00 1A
 (026.686878)  can0  1B400900   [5]  1E 41 C8 CC CD
 (026.885574)  can0  1B400A00   [5]  1E 42 88 3E 63
 (027.257273)  can0  1B40010A   [5]  1E 41 51 9D B2
 (027.257677)  can0  1B40020A   [5]  1E 41 47 BC 20
 (027.258129)  can0  1B40030A   [5]  1E BB F0 4C 04
 (027.258593)  can0  1B40040A   [5]  1E BB F0 4B EC
 (027.259035)  can0  1B40050A   [5]  1E C2 88 F2 07
 (027.259486)  can0  1B40060A   [5]  1E 41 AD 9F 6A
 (027.259772)  can0  1B40070A   [1]  3D
 (027.260252)  can0  1B40080A   [5]  1E BC 64 39 C4
 (027.260689)  can0  1B40090A   [5]  1E BC 06 8A FB
 (027.261124)  can0  1B400A0A   [5]  1E BC 64 39 C4
 (027.261569)  can0  1B400B0A   [5]  1E BC 06 8A FB
 (027.285410)  can0  1B400100   [8]  24 82 22 1A 00 00 33 40
 (027.285926)  can0  1B400200   [8]  24 82 22 1A 00 00 32 B8
 (027.286500)  can0  1B400300   [8]  24 82 22 1A 00 00 0C CD
 (027.485036)  can0  1B400400   [8]  24 82 22 1A 00 00 0C D1
 (027.485568)  can0  1B400500   [8]  24 82 22 1A 00 00 0C D0
 (027.486128)  can0  1B400600   [8]  24 82 22 1A 00 00 00 2D
 (027.684840)  can0  1B400700   [8]  24 82 22 1A 00 00 0C D1
 (027.685366)  can0  1B400800   [8]  24 82 22 3A 00 00 00 22
 (027.685803)  can0  1B400900   [5]  1E 41 C8 CC CD
 (027.884489)  can0  1B400A00   [5]  1E 42 88 3E 63
 (028.230777)  can0  1B40010A   [5]  1E 41 51 9D B2
 (028.231198)  can0  1B40020A   [5]  1E 41 48 09 5D
 (028.231633)  can0  1B40030A   [5]  1E BB F0 4C 04
 (028.232100)  can0  1B40040A   [5]  1E BB F0 4B EC
 (028.232541)  can0  1B40050A   [5]  1E C2 86 36 DE
 (028.232987)  can0  1B40060A   [5]  1E 41 AE 5F 38
 (028.233273)  can0  1B40070A   [1]  3D
 (028.233725)  can0  1B40080A   [5]  1E BC 64 A9 B3
 (028.234182)  can0  1B40090A   [5]  1E BC 06 FA EA
 (028.234628)  can0  1B400A0A   [5]  1E BC 64 A9 B3
 (028.235071)  can0  1B400B0A   [5]  1E BC 06 FA EA
 (028.284309)  can0  1B400100   [8]  24 82 22 1A 00 00 33 40
 (028.284844)  can0  1B400200   [8]  24 82 22 1A 00 00 32 D1
 (028.285404)  can0  1B400300   [8]  24 82 22 1A 00 00 0C CD
 (028.483921)  can0  1B400400   [8]  24 82 22 1A 00 00 0C D1
 (028.484466)  can0  1B400500   [8]  24 82 22 1A 00 00 0C D0
 (028.485020)  can0  1B400600   [8]  24 82 22 1A 00 00 00 2D
 (028.683699)  can0  1B400700   [8]  24 82 22 1A 00 00 0C D1
 (028.684240)  can0  1B400800   [8]  24 82 22 3A 00 00 00 1A
 (028.684674)  can0  1B400900   [5]  1E 41 C8 CC CD
 (028.883368)  can0  1B400A00   [5]  1E 42 88 3E 62
 (029.204934)  can0  1B40010A   [5]  1E 41 51 F7 CF
 (029.205339)  can0  1B40020A   [5]  1E 41 48 A3 D7
 (029.205786)  can0  1B40030A   [5]  1E BB F0 4C 04
 (029.206248)  can0  1B40040A   [5]  1E BB F0 4B EC
 (029.206693)  can0  1B40050A   [5]  1E C2 88 FD 73
 (029.207129)  can0  1B40060A   [5]  1E 41 AE 68 5F
 (029.207437)  can0  1B40070A   [1]  3D
 (029.207880)  can0  1B40080A   [5]  1E BC 65 19 D2
 (029.208330)  can0  1B40090A   [5]  1E BC 07 6B 09
 (029.208773)  can0  1B400A0A   [5]  1E BC 65 19 D2
 (029.209211)  can0  1B400B0A   [5]  1E BC 07 6B 09
 (029.283183)  can0  1B400100   [8]  24 82 22 1A 00 00 33 40
 (029.283714)  can0  1B400200   [8]  24 82 22 1A 00 00 32 B4
 (029.284276)  can0  1B400300   [8]  24 82 22 1A 00 00 0C CD
 (029.482801)  can0  1B400400   [8]  24 82 22 1A 00 00 0C D1
 (029.483340)  can0  1B400500   [8]  24 82 22 1A 00 00 0C CF
 (029.483898)  can0  1B400600   [8]  24 82 22 1A 00 00 00 2D
 (029.682611)  can0  1B400700   [8]  24 82 22 1A 00 00 0C D1
 (029.683136)  can0  1B400800   [8]  24 82 22 3A 00 00 00 1A
 (029.683575)  can0  1B400900   [5]  1E 41 C8 CC CD
 (029.882270)  can0  1B400A00   [5]  1E 42 88 3E 62
 (030.178316)  can0  1B40010A   [5]  1E 41 51 F7 CF
 (030.178727)  can0  1B40020A   [5]  1E 41 48 56 9B
 (030.179166)  can0  1B40030A   [5]  1E BC 70 4B E5
 (030.179615)  can0  1B40040A   [5]  1E BB F0 4B EC
 (030.180054)  can0  1B40050A   [5]  1E C2 86 2D 35
 (030.180505)  can0  1B40060A   [5]  1E 41 AE 36 0C
 (030.180804)  can0  1B40070A   [1]  3D
 (030.181261)  can0  1B40080A   [5]  1E BC 65 FA 10
 (030.181703)  can0  1B40090A   [5]  1E BC 07 DB 28
 (030.182156)  can0  1B400A0A   [5]  1E BC 65 FA 10
 (030.182601)  can0  1B400B0A   [5]  1E BC 07 DB 28
 (030.282058)  can0  1B400100   [8]  24 82 22 1A 00 00 33 40
 (030.282601)  can0  1B400200   [8]  24 82 22 1A 00 00 32 DD
 (030.283163)  can0  1B400300   [8]  24 82 22 1A 00 00 0C CD
 (030.481692)  can0  1B400400   [8]  24 82 22 1A 00 00 0C D1
 (030.482223)  can0  1B400500   [8]  24 82 22 1A 00 00 0C D0
 (030.482795)  can0  1B400600   [8]  24 82 22 1A 00 00 00 2D
 (030.681480)  can0  1B400700   [8]  24 82 22 1A 00 00 0C D1
 (030.682023)  can0  1B400800   [8]  24 82 22 3A 00 00 00 22
 (030.682472)  can0  1B400900   [5]  1E 41 C8 CC CD
 (030.881149)  can0  1B400A00   [5]  1E 42 88 3E 61
 (031.151960)  can0  1B40010A   [5]  1E 41 51 9D B2
 (031.152345)  can0  1B40020A   [5]  1E 41 48 09 5D
 (031.152780)  can0  1B40030A   [5]  1E B2 F5 C2 8F
 (031.153252)  can0  1B40040A   [5]  1E BB F0 4B EC
 (031.153660)  can0  1B40050A   [5]  1E C2 8A 78 73
 (031.154118)  can0  1B40060A   [5]  1E 41 AE 28 55
 (031.154401)  can0  1B40070A   [1]  3D
 (031.154855)  can0  1B40080A   [5]  1E BC 65 FA 10
 (031.155324)  can0  1B40090A   [5]  1E BC 08 4B 17
 (031.155768)  can0  1B400A0A   [5]  1E BC 65 FA 10
 (031.156209)  can0  1B400B0A   [5]  1E BC 08 4B 17
 (031.280959)  can0  1B400100   [8]  24 82 22 1A 00 00 33 40
 (031.281513)  can0  1B400200   [8]  24 82 22 1A 00 00 32 BD
 (031.282071)  can0  1B400300   [8]  24 82 22 1A 00 00 0C CD
 (031.480595)  can0  1B400400   [8]  24 82 22 1A 00 00 0C D1
 (031.481116)  can0  1B400500   [8]  24 82 22 1A 00 00 0C CF
 (031.481675)  can0  1B400600   [8]  24 82 22 1A 00 00 00 2D
 (031.680329)  can0  1B400700   [8]  24 82 22 1A 00 00 0C D1
 (031.680893)  can0  1B400800   [8]  24 82 22 3A 00 00 00 22
 (031.681334)  can0  1B400900   [5]  1E 41 C8 CC CD
 (031.880005)  can0  1B400A00   [5]  1E 42 88 3E 60
 (032.124663)  can0  1B40010A   [5]  1E 41 51 F7 CF
 (032.125048)  can0  1B40020A   [5]  1E 41 48 09 5D
 (032.125496)  can0  1B40030A   [5]  1E BC 70 4B E5
 (032.125955)  can0  1B40040A   [5]  1E BC 70 4C DF
 (032.126401)  can0  1B40050A   [5]  1E C2 8B F6 0A
 (032.126855)  can0  1B40060A   [5]  1E 41 AD 96 4E
 (032.127122)  can0  1B40070A   [1]  3D
 (032.127584)  can0  1B40080A   [5]  1E BC 66 DA 4E
 (032.128052)  can0  1B40090A   [5]  1E BC 09 2B 56
 (032.128485)  can0  1B400A0A   [5]  1E BC 66 DA 4E
 (032.128921)  can0  1B400B0A   [5]  1E BC 09 2B 56
 (032.279834)  can0  1B400100   [8]  24 82 22 1A 00 00 33 40
 (032.280358)  can0  1B400200   [8]  24 82 22 1A 00 00 32 DB
 (032.280916)  can0  1B400300   [8]  24 82 22 1A 00 00 0C CD
 (032.479437)  can0  1B400400   [8]  24 82 22 1A 00 00 0C D1
 (032.479978)  can0  1B400500   [8]  24 82 22 1A 00 00 0C D0
 (032.480537)  can0  1B400600   [8]  24 82 22 1A 00 00 00 2D
 (032.679211)  can0  1B400700   [8]  24 82 22 1A 00 00 0C D1
 (032.679749)  can0  1B400800   [8]  24 82 22 3A 00 00 00 22
 (032.680186)  can0  1B400900   [5]  1E 41 C8 CC CD
 (032.878883)  can0  1B400A00   [5]  1E 42 88 3E 60
 (033.098059)  can0  1B40010A   [5]  1E 41 52 24 DD
 (033.098455)  can0  1B40020A   [5]  1E 41 48 A3 D7
 (033.098903)  can0  1B40030A   [5]  1E B2 F5 C2 8F
 (033.099340)  can0  1B40040A   [5]  1E B2 93 74 BC
 (033.099762)  can0  1B40050A   [5]  1E C2 88 F9 A5
 (033.100228)  can0  1B40060A   [5]  1E 41 AE 63 CB
 (033.100546)  can0  1B40070A   [1]  3D
 (033.100958)  can0  1B40080A   [5]  1E BC 66 DA 4E
 (033.101396)  can0  1B40090A   [5]  1E BC 09 2B 56
 (033.101847)  can0  1B400A0A   [5]  1E BC 66 DA 4E
 (033.102297)  can0  1B400B0A   [5]  1E BC 09 2B 56
 (033.278725)  can0  1B400100   [8]  24 82 22 1A 00 00 33 40
 (033.279251)  can0  1B400200   [8]  24 82 22 1A 00 00 32 BE
 (033.279808)  can0  1B400300   [8]  24 82 22 1A 00 00 0C CD
 (033.478325)  can0  1B400400   [8]  24 82 22 1A 00 00 0C D1
 (033.478862)  can0  1B400500   [8]  24 82 22 1A 00 00 0C D0
 (033.479422)  can0  1B400600   [8]  24 82 22 1A 00 00 00 2D
 (033.678093)  can0  1B400700   [8]  24 82 22 1A 00 00 0C D1
 (033.678634)  can0  1B400800   [8]  24 82 22 3A 00 00 00 22
 (033.679072)  can0  1B400900   [5]  1E 41 C8 CC CD
 (033.877777)  can0  1B400A00   [5]  1E 42 88 3E 5F
 (034.071560)  can0  1B40010A   [5]  1E 41 52 24 DD
 (034.071992)  can0  1B40020A   [5]  1E 41 48 F1 14
 (034.072431)  can0  1B40030A   [5]  1E B2 F5 C2 8F
 (034.072858)  can0  1B40040A   [5]  1E B2 93 74 BC
 (034.073302)  can0  1B40050A   [5]  1E C2 84 FC F0
 (034.073746)  can0  1B40060A   [5]  1E 41 AE 4C EA
 (034.074052)  can0  1B40070A   [1]  3D
 (034.074498)  can0  1B40080A   [5]  1E BC 66 DA 4E
 (034.074936)  can0  1B40090A   [5]  1E BC 09 2B 56
 (034.075378)  can0  1B400A0A   [5]  1E BC 66 DA 4E
 (034.075823)  can0  1B400B0A   [5]  1E BC 09 2B 56
 (034.277609)  can0  1B400100   [8]  24 82 22 1A 00 00 33 40
 (034.278139)  can0  1B400200   [8]  24 82 22 1A 00 00 32 AC
 (034.278694)  can0  1B400300   [8]  24 82 22 1A 00 00 0C CD
 (034.308123)  can0  1B400400   [8]  24 82 22 1A 00 00 0C D1
 (034.308682)  can0  1B400500   [8]  24 82 22 1A 00 00 0C D0
 (034.309240)  can0  1B400600   [8]  24 82 22 1A 00 00 00 2D
 (034.477244)  can0  1B400700   [8]  24 82 22 1A 00 00 0C D1
 (034.477765)  can0  1B400800   [8]  24 82 22 3A 00 00 00 22
 (034.478205)  can0  1B400900   [5]  1E 41 C8 CC CD
 (034.676902)  can0  1B400A00   [5]  1E 42 88 3E 5E
 (035.045687)  can0  1B40010A   [5]  1E 41 51 70 A4
 (035.046104)  can0  1B40020A   [5]  1E 41 48 09 5D
 (035.046554)  can0  1B40030A   [5]  1E BB F0 4C 04
 (035.047067)  can0  1B40040A   [5]  1E BC 70 4C DF
 (035.047446)  can0  1B40050A   [5]  1E C2 86 2B 45
 (035.047905)  can0  1B40060A   [5]  1E 41 AD D6 22
 (035.048172)  can0  1B40070A   [1]  3D
 (035.048627)  can0  1B40080A   [5]  1E BC 67 4A 25
 (035.049088)  can0  1B40090A   [5]  1E BC 0A 0B 05
 (035.049529)  can0  1B400A0A   [5]  1E BC 67 4A 25
 (035.049975)  can0  1B400B0A   [5]  1E BC 0A 0B 05
 (035.276544)  can0  1B400100   [8]  24 82 22 1A 00 00 33 40
 (035.277100)  can0  1B400200   [8]  24 82 22 1A 00 00 32 BE
 (035.277654)  can0  1B400300   [8]  24 82 22 1A 00 00 0C CD
 (035.286009)  can0  1B400400   [8]  24 82 22 1A 00 00 0C D1
 (035.286563)  can0  1B400500   [8]  24 82 22 1A 00 00 0C D0
 (035.287129)  can0  1B400600   [8]  24 82 22 1A 00 00 00 2D
 (035.476166)  can0  1B400700   [8]  24 82 22 1A 00 00 0C D1
 (035.476690)  can0  1B400800   [8]  24 82 22 3A 00 00 00 1A
 (035.477130)  can0  1B400900   [5]  1E 41 C8 CC CD
 (035.675822)  can0  1B400A00   [5]  1E 42 88 3E 5E
 (036.019040)  can0  1B40010A   [5]  1E 41 51 70 A4
 (036.019460)  can0  1B40020A   [5]  1E 41 47 BC 20
 (036.019903)  can0  1B40030A   [5]  1E BC 70 4B E5
 (036.020348)  can0  1B40040A   [5]  1E BC 70 4C DF
 (036.020794)  can0  1B40050A   [5]  1E C2 8B F9 CC
 (036.021237)  can0  1B40060A   [5]  1E 41 AD 5B 1E
 (036.021544)  can0  1B40070A   [1]  3D
 (036.021993)  can0  1B40080A   [5]  1E BC 68 29 D3
 (036.022429)  can0  1B40090A   [5]  1E BC 0A EA B4
 (036.022876)  can0  1B400A0A   [5]  1E BC 68 29 D3
 (036.023323)  can0  1B400B0A   [5]  1E BC 0A EA B4
 (036.275497)  can0  1B400100   [8]  24 82 22 1A 00 00 33 40
 (036.276010)  can0  1B400200   [8]  24 82 22 1A 00 00 32 CB
 (036.276577)  can0  1B400300   [8]  24 82 22 1A 00 00 0C CD
 (036.475090)  can0  1B400400   [8]  24 82 22 1A 00 00 0C D1
 (036.475613)  can0  1B400500   [8]  24 82 22 1A 00 00 0C CF
 (036.476173)  can0  1B400600   [8]  24 82 22 1A 00 00 00 2D
 (036.674868)  can0  1B400700   [8]  24 82 22 1A 00 00 0C D1
 (036.675411)  can0  1B400800   [8]  24 82 22 3A 00 00 00 11
 (036.675851)  can0  1B400900   [5]  1E 41 C8 CC CD
 (036.874538)  can0  1B400A00   [5]  1E 42 88 3E 5E
 (036.992476)  can0  1B40010A   [5]  1E 41 51 F7 CF
 (036.992903)  can0  1B40020A   [5]  1E 41 48 A3 D7
 (036.993342)  can0  1B40030A   [5]  1E BB F0 4C 04
 (036.993780)  can0  1B40040A   [5]  1E B2 93 74 BC
 (036.994219)  can0  1B40050A   [5]  1E C2 84 F1 4B
 (036.994672)  can0  1B40060A   [5]  1E 41 AE 7F 44
 (036.994980)  can0  1B40070A   [1]  3D
 (036.995423)  can0  1B40080A   [5]  1E BC 68 99 F2
 (036.995865)  can0  1B40090A   [5]  1E BC 0A EA B4
 (036.996308)  can0  1B400A0A   [5]  1E BC 68 99 F2
 (036.996752)  can0  1B400B0A   [5]  1E BC 0A EA B4
 (037.274403)  can0  1B400100   [8]  24 82 22 1A 00 00 33 40
 (037.274928)  can0  1B400200   [8]  24 82 22 1A 00 00 32 C0
 (037.275484)  can0  1B400300   [8]  24 82 22 1A 00 00 0C CD
 (037.474001)  can0  1B400400   [8]  24 82 22 1A 00 00 0C D1
 (037.474540)  can0  1B400500   [8]  24 82 22 1A 00 00 0C D0
 (037.475098)  can0  1B400600   [8]  24 82 22 1A 00 00 00 2D
 (037.673774)  can0  1B400700   [8]  24 82 22 1A 00 00 0C D1
 (037.674314)  can0  1B400800   [8]  24 82 22 3A 00 00 00 22
 (037.674750)  can0  1B400900   [5]  1E 41 C8 CC CD
 (037.873422)  can0  1B400A00   [5]  1E 42 88 3E 5D
 (037.965415)  can0  1B40010A   [5]  1E 41 51 CA C1
 (037.965832)  can0  1B40020A   [5]  1E 41 48 A3 D7
 (037.966286)  can0  1B40030A   [5]  1E B2 F5 C2 8F
 (037.966728)  can0  1B40040A   [5]  1E B2 93 74 BC
 (037.967140)  can0  1B40050A   [5]  1E C2 87 91 A6
 (037.967599)  can0  1B40060A   [5]  1E 41 AE 63 CB
 (037.967886)  can0  1B40070A   [1]  3D
 (037.968365)  can0  1B40080A   [5]  1E BC 68 99 F2
 (037.968793)  can0  1B40090A   [5]  1E BC 0A EA B4
 (037.969234)  can0  1B400A0A   [5]  1E BC 68 99 F2
 (037.969677)  can0  1B400B0A   [5]  1E BC 0A EA B4
 (038.273254)  can0  1B400100   [8]  24 82 22 1A 00 00 33 40
 (038.273781)  can0  1B400200   [8]  24 82 22 1A 00 00 32 95
 (038.274348)  can0  1B400300   [8]  24 82 22 1A 00 00 0C CD
 (038.472883)  can0  1B400400   [8]  24 82 22 1A 00 00 0C D1
 (038.473402)  can0  1B400500   [8]  24 82 22 1A 00 00 0C D0
 (038.473965)  can0  1B400600   [8]  24 82 22 1A 00 00 00 2D
 (038.672648)  can0  1B400700   [8]  24 82 22 1A 00 00 0C D1
 (038.673195)  can0  1B400800   [8]  24 82 22 3A 00 00 00 1A
 (038.673633)  can0  1B400900   [5]  1E 41 C8 CC CD
 (038.872299)  can0  1B400A00   [5]  1E 42 88 3E 5C
 (038.938892)  can0  1B40010A   [5]  1E 41 51 F7 CF
 (038.939322)  can0  1B40020A   [5]  1E 41 48 A3 D7
 (038.939765)  can0  1B40030A   [5]  1E BB F0 4C 04
 (038.940203)  can0  1B40040A   [5]  1E B2 93 74 BC
 (038.940645)  can0  1B40050A   [5]  1E C2 89 01 40
 (038.941096)  can0  1B40060A   [5]  1E 41 AE 6C F3
 (038.941392)  can0  1B40070A   [1]  3D
 (038.941842)  can0  1B40080A   [5]  1E BC 69 0A 11
 (038.942281)  can0  1B40090A   [5]  1E BC 0A EA B4
 (038.942720)  can0  1B400A0A   [5]  1E BC 69 0A 11
 (038.943166)  can0  1B400B0A   [5]  1E BC 0A EA B4
 (039.272136)  can0  1B400100   [8]  24 82 22 1A 00 00 33 40
 (039.272700)  can0  1B400200   [8]  24 82 22 1A 00 00 32 C0
 (039.273236)  can0  1B400300   [8]  24 82 22 1A 00 00 0C CD
 (039.471753)  can0  1B400400   [8]  24 82 22 1A 00 00 0C D1
 (039.472284)  can0  1B400500   [8]  24 82 22 1A 00 00 0C D0
 (039.472843)  can0  1B400600   [8]  24 82 22 1A 00 00 00 2D
 (039.671551)  can0  1B400700   [8]  24 82 22 1A 00 00 0C D1
 (039.672064)  can0  1B400800   [8]  24 82 22 3A 00 00 00 1A
 (039.672524)  can0  1B400900   [5]  1E 41 C8 CC CD
 (039.871201)  can0  1B400A00   [5]  1E 42 88 3E 5C
 (039.912420)  can0  1B40010A   [5]  1E 41 51 CA C1
 (039.912842)  can0  1B40020A   [5]  1E 41 48 56 9B
 (039.913297)  can0  1B40030A   [5]  1E BB F0 4C 04
 (039.913753)  can0  1B40040A   [5]  1E BB F0 4B EC
 (039.914185)  can0  1B40050A   [5]  1E C2 8A 78 73
 (039.914630)  can0  1B40060A   [5]  1E 41 AD A8 88
 (039.914918)  can0  1B40070A   [1]  3D
 (039.915393)  can0  1B40080A   [5]  1E BC 69 7A 18
 (039.915824)  can0  1B40090A   [5]  1E BC 0B 5A BB
 (039.916273)  can0  1B400A0A   [5]  1E BC 69 7A 18
 (039.916707)  can0  1B400B0A   [5]  1E BC 0B 5A BB
 (040.271072)  can0  1B400100   [8]  24 82 22 1A 00 00 33 40
 (040.271603)  can0  1B400200   [8]  24 82 22 1A 00 00 32 D7
 (040.272149)  can0  1B400300   [8]  24 82 22 1A 00 00 0C CD
 (040.470683)  can0  1B400400   [8]  24 82 22 1A 00 00 0C D1
 (040.471220)  can0  1B400500   [8]  24 82 22 1A 00 00 0C CF
 (040.471778)  can0  1B400600   [8]  24 82 22 1A 00 00 00 2D
 (040.670452)  can0  1B400700   [8]  24 82 22 1A 00 00 0C D1
 (040.670997)  can0  1B400800   [8]  24 82 22 3A 00 00 00 1A
 (040.671438)  can0  1B400900   [5]  1E 41 C8 CC CD
 (040.870144)  can0  1B400A00   [5]  1E 42 88 3E 5B
 (040.885923)  can0  1B40010A   [5]  1E 41 51 F7 CF
 (040.886332)  can0  1B40020A   [5]  1E 41 48 56 9B
 (040.886785)  can0  1B40030A   [5]  1E BC 70 4B E5
 (040.887217)  can0  1B40040A   [5]  1E B2 93 74 BC
 (040.887650)  can0  1B40050A   [5]  1E C2 88 EE 37
 (040.888096)  can0  1B40060A   [5]  1E 41 AD DA B2
 (040.888418)  can0  1B40070A   [1]  3D
 (040.888847)  can0  1B40080A   [5]  1E BC 6A 5A 56
 (040.889288)  can0  1B40090A   [5]  1E BC 0B 5A BB
 (040.889722)  can0  1B400A0A   [5]  1E BC 6A 5A 56
 (040.890168)  can0  1B400B0A   [5]  1E BC 0B 5A BB
 (041.270010)  can0  1B400100   [8]  24 82 22 1A 00 00 33 40
 (041.270536)  can0  1B400200   [8]  24 82 22 1A 00 00 32 C4
 (041.271093)  can0  1B400300   [8]  24 82 22 1A 00 00 0C CD
 (041.469632)  can0  1B400400   [8]  24 82 22 1A 00 00 0C D2
 (041.470170)  can0  1B400500   [8]  24 82 22 1A 00 00 0C D0
 (041.470728)  can0  1B400600   [8]  24 82 22 1A 00 00 00 2D
 (041.669386)  can0  1B400700   [8]  24 82 22 1A 00 00 0C D1
 (041.669939)  can0  1B400800   [8]  24 82 22 3A 00 00 00 22
 (041.670388)  can0  1B400900   [5]  1E 41 C8 CC CD
 (041.859924)  can0  1B40010A   [5]  1E 41 51 9D B2
 (041.860354)  can0  1B40020A   [5]  1E 41 48 09 5D
 (041.860792)  can0  1B40030A   [5]  1E BC 70 4B E5
 (041.861242)  can0  1B40040A   [5]  1E BB F0 4B EC
 (041.861681)  can0  1B40050A   [5]  1E C2 8A 6D 1D
 (041.862129)  can0  1B40060A   [5]  1E 41 AD DF 42
 (041.862439)  can0  1B40070A   [1]  3D
 (041.862882)  can0  1B40080A   [5]  1E BC 6B 3A 34
 (041.863325)  can0  1B40090A   [5]  1E BC 0B CA AA
 (041.863767)  can0  1B400A0A   [5]  1E BC 6B 3A 34
 (041.864207)  can0  1B400B0A   [5]  1E BC 0B CA AA
 (041.869635)  can0  1B400A00   [5]  1E 42 88 3E 5B
 (042.268948)  can0  1B400100   [8]  24 82 22 1A 00 00 33 40
 (042.269480)  can0  1B400200   [8]  24 82 22 1A 00 00 32 BA
 (042.270052)  can0  1B400300   [8]  24 82 22 1A 00 00 0C CD
 (042.468582)  can0  1B400400   [8]  24 82 22 1A 00 00 0C D1
 (042.469109)  can0  1B400500   [8]  24 82 22 1A 00 00 0C D0
 (042.469670)  can0  1B400600   [8]  24 82 22 1A 00 00 00 2D
 (042.668371)  can0  1B400700   [8]  24 82 22 1A 00 00 0C D1
 (042.668912)  can0  1B400800   [8]  24 82 22 3A 00 00 00 1A
 (042.669353)  can0  1B400900   [5]  1E 41 C8 CC CD
 (042.833340)  can0  1B40010A   [5]  1E 41 52 51 EC
 (042.833772)  can0  1B40020A   [5]  1E 41 49 3E 52
 (042.834210)  can0  1B40030A   [5]  1E 3B F0 4D 96
 (042.834673)  can0  1B40040A   [5]  1E 3B F0 4B A2
 (042.835120)  can0  1B40050A   [5]  1E C2 83 BF 96
 (042.835569)  can0  1B40060A   [5]  1E 41 AF 44 A4
 (042.835853)  can0  1B40070A   [1]  3D
 (042.836334)  can0  1B40080A   [5]  1E BC 6A C9 E4
 (042.836763)  can0  1B40090A   [5]  1E BC 0B 5A 5B
 (042.837200)  can0  1B400A0A   [5]  1E BC 6A C9 E4
 (042.837663)  can0  1B400B0A   [5]  1E BC 0B 5A 5B
 (042.843034)  can0  1B400A00   [5]  1E 42 88 3E 5A
 (043.354266)  can0  1B400100   [8]  24 82 22 1A 00 00 33 40
 (043.354796)  can0  1B400200   [8]  24 82 22 1A 00 00 32 BA
 (043.355338)  can0  1B400300   [8]  24 82 22 1A 00 00 0C CD
 (043.467590)  can0  1B400400   [8]  24 82 22 1A 00 00 0C D1
 (043.468134)  can0  1B400500   [8]  24 82 22 1A 00 00 0C D0
 (043.468694)  can0  1B400600   [8]  24 82 22 1A 00 00 00 2D
 (043.667412)  can0  1B400700   [8]  24 82 22 1A 00 00 0C D1
 (043.667964)  can0  1B400800   [8]  24 82 22 3A 00 00 00 1A
 (043.668411)  can0  1B400900   [5]  1E 41 C8 CC CD
 (043.806841)  can0  1B40010A   [5]  1E 41 52 51 EC
 (043.807274)  can0  1B40020A   [5]  1E 41 48 F1 14
 (043.807711)  can0  1B40030A   [5]  1E B2 F5 C2 8F
 (043.808146)  can0  1B40040A   [5]  1E B2 93 74 BC
 (043.808584)  can0  1B40050A   [5]  1E C2 86 44 5F
 (043.809033)  can0  1B40060A   [5]  1E 41 AE CD 31
 (043.809342)  can0  1B40070A   [1]  3D
 (043.809785)  can0  1B40080A   [5]  1E BC 6A C9 E4
 (043.810230)  can0  1B40090A   [5]  1E BC 0B 5A 5B
 (043.810671)  can0  1B400A0A   [5]  1E BC 6A C9 E4
 (043.811111)  can0  1B400B0A   [5]  1E BC 0B 5A 5B
 (043.816524)  can0  1B400A00   [5]  1E 42 88 3E 5A
 (044.332225)  can0  1B400100   [8]  24 82 22 1A 00 00 33 40
 (044.332752)  can0  1B400200   [8]  24 82 22 1A 00 00 32 BB
 (044.333303)  can0  1B400300   [8]  24 82 22 1A 00 00 0C CD
 (044.466625)  can0  1B400400   [8]  24 82 22 1A 00 00 0C D1
 (044.467172)  can0  1B400500   [8]  24 82 22 1A 00 00 0C D0
 (044.467739)  can0  1B400600   [8]  24 82 22 1A 00 00 00 2D
 (044.666424)  can0  1B400700   [8]  24 82 22 1A 00 00 0C D1
 (044.667028)  can0  1B400800   [8]  24 82 22 3A 00 00 00 22
 (044.667399)  can0  1B400900   [5]  1E 41 C8 CC CD
 (044.779858)  can0  1B40010A   [5]  1E 41 52 51 EC
 (044.780267)  can0  1B40020A   [5]  1E 41 48 F1 14
 (044.780706)  can0  1B40030A   [5]  1E B2 F5 C2 8F
 (044.781149)  can0  1B40040A   [5]  1E 3B F0 4B A2
 (044.781590)  can0  1B40050A   [5]  1E C2 87 A0 F5
 (044.782039)  can0  1B40060A   [5]  1E 41 AF 32 3E
 (044.782347)  can0  1B40070A   [1]  3D
 (044.782792)  can0  1B40080A   [5]  1E BC 6A C9 E4
 (044.783234)  can0  1B40090A   [5]  1E BC 0A EA 0C
 (044.783678)  can0  1B400A0A   [5]  1E BC 6A C9 E4
 (044.784127)  can0  1B400B0A   [5]  1E BC 0A EA 0C
 (044.789527)  can0  1B400A00   [5]  1E 42 88 3E 5A
 (045.310243)  can0  1B400100   [8]  24 82 22 1A 00 00 33 40
 (045.310769)  can0  1B400200   [8]  24 82 22 1A 00 00 32 DA
 (045.311316)  can0  1B400300   [8]  24 82 22 1A 00 00 0C CD
 (045.465608)  can0  1B400400   [8]  24 82 22 1A 00 00 0C D1
 (045.466153)  can0  1B400500   [8]  24 82 22 1A 00 00 0C D0
 (045.466719)  can0  1B400600   [8]  24 82 22 1A 00 00 00 2D
 (045.665408)  can0  1B400700   [8]  24 82 22 1A 00 00 0C D1
 (045.665944)  can0  1B400800   [8]  24 82 22 3A 00 00 00 11
 (045.666384)  can0  1B400900   [5]  1E 41 C8 CC CD
 (045.753216)  can0  1B40010A   [5]  1E 41 51 CA C1
 (045.753667)  can0  1B40020A   [5]  1E 41 48 09 5D
 (045.754102)  can0  1B40030A   [5]  1E BC B4 39 67
 (045.754552)  can0  1B40040A   [5]  1E BC 70 4C DF
 (045.754992)  can0  1B40050A   [5]  1E C2 88 EC 4F
 (045.755448)  can0  1B40060A   [5]  1E 41 AD F6 14
 (045.755724)  can0  1B40070A   [1]  3D
 (045.756211)  can0  1B40080A   [5]  1E BC 6C 19 FA
 (045.756645)  can0  1B40090A   [5]  1E BC 0B CA 1B
 (045.757096)  can0  1B400A0A   [5]  1E BC 6C 19 FA
 (045.757520)  can0  1B400B0A   [5]  1E BC 0B CA 1B
 (045.762914)  can0  1B400A00   [5]  1E 42 88 3E 59
 (046.464597)  can0  1B400100   [8]  24 82 22 1A 00 00 33 40
 (046.465129)  can0  1B400200   [8]  24 82 22 1A 00 00 32 C4
 (046.465678)  can0  1B400300   [8]  24 82 22 1A 00 00 0C CD
 (046.664368)  can0  1B400400   [8]  24 82 22 1A 00 00 0C D1
 (046.664925)  can0  1B400500   [8]  24 82 22 1A 00 00 0C D0
 (046.665481)  can0  1B400600   [8]  24 82 22 1A 00 00 00 2D
 (046.726726)  can0  1B40010A   [5]  1E 41 51 CA C1
 (046.727141)  can0  1B40020A   [5]  1E 41 48 A3 D7
 (046.727583)  can0  1B40030A   [5]  1E BB F0 4C 04
 (046.728035)  can0  1B40040A   [5]  1E BB F0 4B EC
 (046.728475)  can0  1B40050A   [5]  1E C2 8A 74 AD
 (046.728916)  can0  1B40060A   [5]  1E 41 AE 23 C3
 (046.729226)  can0  1B40070A   [1]  3D
 (046.729680)  can0  1B40080A   [5]  1E BC 6C 8A 01
 (046.730111)  can0  1B40090A   [5]  1E BC 0C 3A 22
 (046.730553)  can0  1B400A0A   [5]  1E BC 6C 8A 01
 (046.730998)  can0  1B400B0A   [5]  1E BC 0C 3A 22
 (046.736495)  can0  1B400700   [8]  24 82 22 1A 00 00 0C D1
 (046.737113)  can0  1B400800   [8]  24 82 22 3A 00 00 00 1A
 (046.737511)  can0  1B400900   [5]  1E 41 C8 CC CD
 (046.864055)  can0  1B400A00   [5]  1E 42 88 3E 59
 (047.463587)  can0  1B400100   [8]  24 82 22 1A 00 00 33 40
 (047.464110)  can0  1B400200   [8]  24 82 22 1A 00 00 32 C0
 (047.464669)  can0  1B400300   [8]  24 82 22 1A 00 00 0C CD
 (047.510653)  can0  1B400400   [8]  24 82 22 1A 00 00 0C D1
 (047.511205)  can0  1B400500   [8]  24 82 22 1A 00 00 0C CF
 (047.511767)  can0  1B400600   [8]  24 82 22 1A 00 00 00 2D
 (047.663359)  can0  1B400700   [8]  24 82 22 1A 00 00 0C D1
 (047.663881)  can0  1B400800   [8]  24 82 22 3A 00 00 00 22
 (047.664323)  can0  1B400900   [5]  1E 41 C8 CC CD
 (047.700827)  can0  1B40010A   [5]  1E 41 51 9D B2
 (047.701249)  can0  1B40020A   [5]  1E 41 48 56 9B
 (047.701702)  can0  1B40030A   [5]  1E BB F0 4C 04
 (047.702164)  can0  1B40040A   [5]  1E BB F0 4B EC
 (047.702606)  can0  1B40050A   [5]  1E C2 88 F2 07
 (047.703047)  can0  1B40060A   [5]  1E 41 AE 1A 9F
 (047.703332)  can0  1B40070A   [1]  3D
 (047.703809)  can0  1B40080A   [5]  1E BC 6C F9 F0
 (047.704250)  can0  1B40090A   [5]  1E BC 0C AA 11
 (047.704706)  can0  1B400A0A   [5]  1E BC 6C F9 F0
 (047.705154)  can0  1B400B0A   [5]  1E BC 0C AA 11
 (047.710532)  can0  1B400A00   [5]  1E 42 88 3E 58
 (048.462525)  can0  1B400100   [8]  24 82 22 1A 00 00 33 40
 (048.463055)  can0  1B400200   [8]  24 82 22 1A 00 00 32 CE
 (048.463601)  can0  1B400300   [8]  24 82 22 1A 00 00 0C CD
 (048.488507)  can0  1B400400   [8]  24 82 22 1A 00 00 0C D1
 (048.489053)  can0  1B400500   [8]  24 82 22 1A 00 00 0C D0
 (048.489612)  can0  1B400600   [8]  24 82 22 1A 00 00 00 2D
 (048.662296)  can0  1B400700   [8]  24 82 22 1A 00 00 0C D1
 (048.662840)  can0  1B400800   [8]  24 82 22 3A 00 00 00 1A
 (048.663279)  can0  1B400900   [5]  1E 41 C8 CC CD
 (048.674364)  can0  1B40010A   [5]  1E 41 52 24 DD
 (048.674801)  can0  1B40020A   [5]  1E 41 48 56 9B
 (048.675242)  can0  1B40030A   [5]  1E B2 F5 C2 8F
 (048.675685)  can0  1B40040A   [5]  1E B2 93 74 BC
 (048.676141)  can0  1B40050A   [5]  1E C2 84 F9 0F
 (048.676575)  can0  1B40060A   [5]  1E 41 AE C8 9B
 (048.676864)  can0  1B40070A   [1]  3D
 (048.677336)  can0  1B40080A   [5]  1E BC 6C F9 F0
 (048.677775)  can0  1B40090A   [5]  1E BC 0C AA 11
 (048.678228)  can0  1B400A0A   [5]  1E BC 6C F9 F0
 (048.678686)  can0  1B400B0A   [5]  1E BC 0C AA 11
 (048.684067)  can0  1B400A00   [5]  1E 42 88 3E 57
 (049.461510)  can0  1B400100   [8]  24 82 22 1A 00 00 33 40
 (049.462007)  can0  1B400200   [8]  24 82 22 1A 00 00 32 B9
 (049.462567)  can0  1B400300   [8]  24 82 22 1A 00 00 0C CD
 (049.466285)  can0  1B400400   [8]  24 82 22 1A 00 00 0C D1
 (049.466847)  can0  1B400500   [8]  24 82 22 1A 00 00 0C D0
 (049.467454)  can0  1B400600   [8]  24 82 22 1A 00 00 00 2D
 (049.647773)  can0  1B40010A   [5]  1E 41 51 70 A4
 (049.648172)  can0  1B40020A   [5]  1E 41 48 09 5D
 (049.648617)  can0  1B40030A   [5]  1E BC B4 39 67
 (049.649087)  can0  1B40040A   [5]  1E BB F0 4B EC
 (049.649499)  can0  1B40050A   [5]  1E C2 8A 61 C2
 (049.649958)  can0  1B40060A   [5]  1E 41 AD D1 92
 (049.650243)  can0  1B40070A   [1]  3D
 (049.650724)  can0  1B40080A   [5]  1E BC 6E 49 75
 (049.651155)  can0  1B40090A   [5]  1E BC 0D 19 E8
 (049.651590)  can0  1B400A0A   [5]  1E BC 6E 49 75
 (049.652028)  can0  1B400B0A   [5]  1E BC 0D 19 E8
 (049.657566)  can0  1B400700   [8]  24 82 22 1A 00 00 0C D1
 (049.658109)  can0  1B400800   [8]  24 82 22 3A 00 00 00 22
 (049.658552)  can0  1B400900   [5]  1E 41 C8 CC CD
 (049.661138)  can0  1B400A00   [5]  1E 42 88 3E 57
 (050.444184)  can0  1B400100   [8]  24 82 22 1A 00 00 33 40
 (050.444719)  can0  1B400200   [8]  24 82 22 1A 00 00 32 BC
 (050.445270)  can0  1B400300   [8]  24 82 22 1A 00 00 0C CD
 (050.460467)  can0  1B400400   [8]  24 82 22 1A 00 00 0C D1
 (050.461006)  can0  1B400500   [8]  24 82 22 1A 00 00 0C D0
 (050.461567)  can0  1B400600   [8]  24 82 22 1A 00 00 00 2D
 (050.620706)  can0  1B40010A   [5]  1E 41 52 24 DD
 (050.621126)  can0  1B40020A   [5]  1E 41 48 F1 14
 (050.621567)  can0  1B40030A   [5]  1E BC 70 4B E5
 (050.622002)  can0  1B40040A   [5]  1E B2 93 74 BC
 (050.622439)  can0  1B40050A   [5]  1E C2 84 ED 68
 (050.622887)  can0  1B40060A   [5]  1E 41 AE FB 19
 (050.623195)  can0  1B40070A   [1]  3D
 (050.623635)  can0  1B40080A   [5]  1E BC 6F 29 E3
 (050.624074)  can0  1B40090A   [5]  1E BC 0D 19 E8
 (050.624519)  can0  1B400A0A   [5]  1E BC 6F 29 E3
 (050.624959)  can0  1B400B0A   [5]  1E BC 0D 19 E8
 (050.630496)  can0  1B400700   [8]  24 82 22 1A 00 00 0C D1
 (050.631069)  can0  1B400800   [8]  24 82 22 3A 00 00 00 1A
 (050.631522)  can0  1B400900   [5]  1E 41 C8 00 00
 (050.660155)  can0  1B400A00   [5]  1E 42 88 3E 56
 (051.422020)  can0  1B400100   [8]  24 82 22 1A 00 00 33 40
 (051.422546)  can0  1B400200   [8]  24 82 22 1A 00 00 32 DE
 (051.423094)  can0  1B400300   [8]  24 82 22 1A 00 00 0C CD
 (051.459466)  can0  1B400400   [8]  24 82 22 1A 00 00 0C D1
 (051.460002)  can0  1B400500   [8]  24 82 22 1A 00 00 0C CF
 (051.460563)  can0  1B400600   [8]  24 82 22 1A 00 00 00 2D
 (051.594041)  can0  1B40010A   [5]  1E 41 52 24 DD
 (051.594466)  can0  1B40020A   [5]  1E 41 48 F1 14
 (051.594902)  can0  1B40030A   [5]  1E BC 70 4B E5
 (051.595349)  can0  1B40040A   [5]  1E 3B F0 4B A2
 (051.595793)  can0  1B40050A   [5]  1E C2 89 01 40
 (051.596240)  can0  1B40060A   [5]  1E 41 AE 6C F3
 (051.596548)  can0  1B40070A   [1]  3D
 (051.597075)  can0  1B40080A   [5]  1E BC 70 0A 51
 (051.597446)  can0  1B40090A   [5]  1E BC 0C A9 B1
 (051.597889)  can0  1B400A0A   [5]  1E BC 70 0A 51
 (051.598339)  can0  1B400B0A   [5]  1E BC 0C A9 B1
 (051.603838)  can0  1B400700   [8]  24 82 22 1A 00 00 0C D1
 (051.604400)  can0  1B400800   [8]  24 82 22 3A 00 00 00 22
 (051.604858)  can0  1B400900   [5]  1E 41 C8 00 00
 (051.659159)  can0  1B400A00   [5]  1E 42 88 3E 55
 (052.399867)  can0  1B400100   [8]  24 82 22 1A 00 00 33 40
 (052.400397)  can0  1B400200   [8]  24 82 22 1A 00 00 32 AB
 (052.400950)  can0  1B400300   [8]  24 82 22 1A 00 00 0C CD
 (052.458480)  can0  1B400400   [8]  24 82 22 1A 00 00 0C D1
 (052.459023)  can0  1B400500   [8]  24 82 22 1A 00 00 0C D0
 (052.459582)  can0  1B400600   [8]  24 82 22 1A 00 00 00 2D
 (052.567479)  can0  1B40010A   [5]  1E 41 51 CA C1
 (052.567900)  can0  1B40020A   [5]  1E 41 48 A3 D7
 (052.568346)  can0  1B40030A   [5]  1E BC 70 4B E5
 (052.568790)  can0  1B40040A   [5]  1E 3B F0 4B A2
 (052.569236)  can0  1B40050A   [5]  1E C2 83 C1 8A
 (052.569683)  can0  1B40060A   [5]  1E 41 AE 6C F3
 (052.569992)  can0  1B40070A   [1]  3D
 (052.570435)  can0  1B40080A   [5]  1E BC 70 EA 5F
 (052.570879)  can0  1B40090A   [5]  1E BC 0C 39 AA
 (052.571324)  can0  1B400A0A   [5]  1E BC 70 EA 5F
 (052.571767)  can0  1B400B0A   [5]  1E BC 0C 39 AA
 (052.577268)  can0  1B400700   [8]  24 82 22 1A 00 00 0C D1
 (052.577837)  can0  1B400800   [8]  24 82 22 3A 00 00 00 22
 (052.578291)  can0  1B400900   [5]  1E 41 C8 00 00
 (052.658199)  can0  1B400A00   [5]  1E 42 88 3E 55
 (053.377702)  can0  1B400100   [8]  24 82 22 1A 00 00 33 40
 (053.378231)  can0  1B400200   [8]  24 82 22 1A 00 00 32 BC
 (053.378778)  can0  1B400300   [8]  24 82 22 1A 00 00 0C CD
 (053.457518)  can0  1B400400   [8]  24 82 22 1A 00 00 0C D1
 (053.458070)  can0  1B400500   [8]  24 82 22 1A 00 00 0C D0
 (053.458633)  can0  1B400600   [8]  24 82 22 1A 00 00 00 2D
 (053.540965)  can0  1B40010A   [5]  1E 41 51 70 A4
 (053.541383)  can0  1B40020A   [5]  1E 41 48 09 5D
 (053.541840)  can0  1B40030A   [5]  1E BC 70 4B E5
 (053.542280)  can0  1B40040A   [5]  1E B2 93 74 BC
 (053.542720)  can0  1B40050A   [5]  1E C2 8C 05 0C
 (053.543163)  can0  1B40060A   [5]  1E 41 AC E9 84
 (053.543448)  can0  1B40070A   [1]  3D
 (053.543929)  can0  1B40080A   [5]  1E BC 71 CA 0D
 (053.544361)  can0  1B40090A   [5]  1E BC 0C 39 AA
 (053.544806)  can0  1B400A0A   [5]  1E BC 71 CA 0D
 (053.545247)  can0  1B400B0A   [5]  1E BC 0C 39 AA
 (053.550773)  can0  1B400700   [8]  24 82 22 1A 00 00 0C D1
 (053.551314)  can0  1B400800   [8]  24 82 22 3A 00 00 00 1A
 (053.551772)  can0  1B400900   [5]  1E 41 C8 00 00
 (053.657210)  can0  1B400A00   [5]  1E 42 88 3E 54
 (054.355643)  can0  1B400100   [8]  24 82 22 1A 00 00 33 40
 (054.356155)  can0  1B400200   [8]  24 82 22 1A 00 00 32 C3
 (054.356722)  can0  1B400300   [8]  24 82 22 1A 00 00 0C CD
 (054.456504)  can0  1B400400   [8]  24 82 22 1A 00 00 0C D1
 (054.457097)  can0  1B400500   [8]  24 82 22 1A 00 00 0C D0
 (054.457612)  can0  1B400600   [8]  24 82 22 1A 00 00 00 2D
 (054.515010)  can0  1B40010A   [5]  1E 41 51 9D B2
 (054.515441)  can0  1B40020A   [5]  1E 41 48 09 5D
 (054.515886)  can0  1B40030A   [5]  1E BC B4 39 67
 (054.516336)  can0  1B40040A   [5]  1E BB F0 4B EC
 (054.516774)  can0  1B40050A   [5]  1E C2 8A 6D 1D
 (054.517209)  can0  1B40060A   [5]  1E 41 AD 5F AA
 (054.517511)  can0  1B40070A   [1]  3D
 (054.517970)  can0  1B40080A   [5]  1E BC 73 19 DB
 (054.518410)  can0  1B40090A   [5]  1E BC 0C A9 99
 (054.518854)  can0  1B400A0A   [5]  1E BC 73 19 DB
 (054.519295)  can0  1B400B0A   [5]  1E BC 0C A9 99
 (054.524811)  can0  1B400700   [8]  24 82 22 1A 00 00 0C D1
 (054.525374)  can0  1B400800   [8]  24 82 22 3A 00 00 00 22
 (054.525826)  can0  1B400900   [5]  1E 41 C8 00 00
 (054.656188)  can0  1B400A00   [5]  1E 42 88 3E 54
 (055.333544)  can0  1B400100   [8]  24 82 22 1A 00 00 33 40
 (055.334064)  can0  1B400200   [8]  24 82 22 1A 00 00 32 DB
 (055.334619)  can0  1B400300   [8]  24 82 22 1A 00 00 0C CD
 (055.455463)  can0  1B400400   [8]  24 82 22 1A 00 00 0C D1
 (055.456005)  can0  1B400500   [8]  24 82 22 1A 00 00 0C D0
 (055.456562)  can0  1B400600   [8]  24 82 22 1A 00 00 00 2D
 (055.488562)  can0  1B40010A   [5]  1E 41 52 51 EC
 (055.488981)  can0  1B40020A   [5]  1E 41 49 3E 52
 (055.489412)  can0  1B40030A   [5]  1E B2 F5 C2 8F
 (055.489860)  can0  1B40040A   [5]  1E 3C 70 4C BA
 (055.490311)  can0  1B40050A   [5]  1E C2 8A 83 C3
 (055.490754)  can0  1B40060A   [5]  1E 41 AF 32 3E
 (055.491063)  can0  1B40070A   [1]  3D
 (055.491504)  can0  1B40080A   [5]  1E BC 73 19 DB
 (055.491951)  can0  1B40090A   [5]  1E BC 0B C8 FA
 (055.492397)  can0  1B400A0A   [5]  1E BC 73 19 DB
 (055.492842)  can0  1B400B0A   [5]  1E BC 0B C8 FA
 (055.498351)  can0  1B400700   [8]  24 82 22 1A 00 00 0C D1
 (055.498920)  can0  1B400800   [8]  24 82 22 3A 00 00 00 1A
 (055.499373)  can0  1B400900   [5]  1E 41 C8 00 00
 (055.655142)  can0  1B400A00   [5]  1E 42 88 3E 53
 (056.311464)  can0  1B400100   [8]  24 82 22 1A 00 00 33 40
 (056.311981)  can0  1B400200   [8]  24 82 22 1A 00 00 32 BC
 (056.312535)  can0  1B400300   [8]  24 82 22 1A 00 00 0C CD
 (056.454420)  can0  1B400400   [8]  24 82 22 1A 00 00 0C D1
 (056.454959)  can0  1B400500   [8]  24 82 22 1A 00 00 0C D0
 (056.455518)  can0  1B400600   [8]  24 82 22 1A 00 00 00 2D
 (056.462030)  can0  1B40010A   [5]  1E 41 51 70 A4
 (056.462507)  can0  1B40020A   [5]  1E 41 48 09 5D
 (056.462945)  can0  1B40030A   [5]  1E BC 70 4B E5
 (056.463380)  can0  1B40040A   [5]  1E BB F0 4B EC
 (056.463829)  can0  1B40050A   [5]  1E C2 88 F3 EF
 (056.464286)  can0  1B40060A   [5]  1E 41 AD FF 36
 (056.464570)  can0  1B40070A   [1]  3D
 (056.465050)  can0  1B40080A   [5]  1E BC 73 F9 89
 (056.465491)  can0  1B40090A   [5]  1E BC 0C 38 D1
 (056.465927)  can0  1B400A0A   [5]  1E BC 73 F9 89
 (056.466366)  can0  1B400B0A   [5]  1E BC 0C 38 D1
 (056.471865)  can0  1B400700   [8]  24 82 22 1A 00 00 0C D1
 (056.472409)  can0  1B400800   [8]  24 82 22 3A 00 00 00 22
 (056.472864)  can0  1B400900   [5]  1E 41 C8 00 00
 (056.654100)  can0  1B400A00   [5]  1E 42 88 3E 53
 (057.289329)  can0  1B400100   [8]  24 82 22 1A 00 00 33 40
 (057.289852)  can0  1B400200   [8]  24 82 22 1A 00 00 32 D4
 (057.290418)  can0  1B400300   [8]  24 82 22 1A 00 00 0C CD
 (057.434924)  can0  1B40010A   [5]  1E 41 51 9D B2
 (057.435327)  can0  1B40020A   [5]  1E 41 48 56 9B
 (057.435763)  can0  1B40030A   [5]  1E BC B4 39 67
 (057.436212)  can0  1B40040A   [5]  1E BB F0 4B EC
 (057.436657)  can0  1B40050A   [5]  1E C2 88 F2 07
 (057.437116)  can0  1B40060A   [5]  1E 41 AD DF 42
 (057.437402)  can0  1B40070A   [1]  3D
 (057.437868)  can0  1B40080A   [5]  1E BC 75 49 57
 (057.438328)  can0  1B40090A   [5]  1E BC 0C A8 C0
 (057.438767)  can0  1B400A0A   [5]  1E BC 75 49 57
 (057.439213)  can0  1B400B0A   [5]  1E BC 0C A8 C0
 (057.444708)  can0  1B400400   [8]  24 82 22 1A 00 00 0C D1
 (057.445270)  can0  1B400500   [8]  24 82 22 1A 00 00 0C D0
 (057.445835)  can0  1B400600   [8]  24 82 22 1A 00 00 00 2D
 (057.453416)  can0  1B400700   [8]  24 82 22 1A 00 00 0C D1
 (057.453962)  can0  1B400800   [8]  24 82 22 3A 00 00 00 1A
 (057.454417)  can0  1B400900   [5]  1E 41 C8 00 00
 (057.653099)  can0  1B400A00   [5]  1E 42 88 3E 52
 (058.408396)  can0  1B40010A   [5]  1E 41 52 24 DD
 (058.408795)  can0  1B40020A   [5]  1E 41 48 F1 14
 (058.409229)  can0  1B40030A   [5]  1E BC B4 39 67
 (058.409667)  can0  1B40040A   [5]  1E B2 93 74 BC
 (058.410106)  can0  1B40050A   [5]  1E C2 8D B1 43
 (058.410549)  can0  1B40060A   [5]  1E 41 AE 68 5F
 (058.410856)  can0  1B40070A   [1]  3D
 (058.411303)  can0  1B40080A   [5]  1E BC 76 99 FD
 (058.411767)  can0  1B40090A   [5]  1E BC 0C A8 C0
 (058.412205)  can0  1B400A0A   [5]  1E BC 76 99 FD
 (058.412653)  can0  1B400B0A   [5]  1E BC 0C A8 C0
 (058.418174)  can0  1B400100   [8]  24 82 22 1A 00 00 33 40
 (058.418735)  can0  1B400200   [8]  24 82 22 1A 00 00 32 C5
 (058.419297)  can0  1B400300   [8]  24 82 22 1A 00 00 0C CD
 (058.452391)  can0  1B400400   [8]  24 82 22 1A 00 00 0C D1
 (058.452929)  can0  1B400500   [8]  24 82 22 1A 00 00 0C D0
 (058.453490)  can0  1B400600   [8]  24 82 22 1A 00 00 00 2D
 (058.652176)  can0  1B400700   [8]  24 82 22 1A 00 00 0C D1
 (058.652714)  can0  1B400800   [8]  24 82 22 3A 00 00 00 22
 (058.653164)  can0  1B400900   [5]  1E 41 C8 00 00
 (058.851852)  can0  1B400A00   [5]  1E 42 88 3E 51
 (059.381879)  can0  1B40010A   [5]  1E 41 51 CA C1
 (059.382288)  can0  1B40020A   [5]  1E 41 48 09 5D
 (059.382728)  can0  1B40030A   [5]  1E BC 70 4B E5
 (059.383165)  can0  1B40040A   [5]  1E B2 93 74 BC
 (059.383600)  can0  1B40050A   [5]  1E C2 88 F5 D6
 (059.384068)  can0  1B40060A   [5]  1E 41 AE 5F 38
 (059.384356)  can0  1B40070A   [1]  3D
 (059.384811)  can0  1B40080A   [5]  1E BC 77 7A 0B
 (059.385260)  can0  1B40090A   [5]  1E BC 0C A8 C0
 (059.385705)  can0  1B400A0A   [5]  1E BC 77 7A 0B
 (059.386154)  can0  1B400B0A   [5]  1E BC 0C A8 C0
 (059.391663)  can0  1B400100   [8]  24 82 22 1A 00 00 33 40
 (059.392221)  can0  1B400200   [8]  24 82 22 1A 00 00 32 C6
 (059.392779)  can0  1B400300   [8]  24 82 22 1A 00 00 0C CD
 (059.451346)  can0  1B400400   [8]  24 82 22 1A 00 00 0C D1
 (059.451883)  can0  1B400500   [8]  24 82 22 1A 00 00 0C CF
 (059.452444)  can0  1B400600   [8]  24 82 22 1A 00 00 00 2D
 (059.489485)  can0  1B400700   [8]  24 82 22 1A 00 00 0C D1
 (059.490014)  can0  1B400800   [8]  24 82 22 3A 00 00 00 1A
 (059.490467)  can0  1B400900   [5]  1E 41 C8 00 00
 (059.651030)  can0  1B400A00   [5]  1E 42 88 3E 51
 (060.355965)  can0  1B40010A   [5]  1E 41 51 CA C1
 (060.356364)  can0  1B40020A   [5]  1E 41 48 56 9B
 (060.356805)  can0  1B40030A   [5]  1E BC 70 4B E5
 (060.357261)  can0  1B40040A   [5]  1E 3B F0 4B A2
 (060.357706)  can0  1B40050A   [5]  1E C2 8A 78 73
 (060.358149)  can0  1B40060A   [5]  1E 41 AE 28 55
 (060.358428)  can0  1B40070A   [1]  3D
 (060.358891)  can0  1B40080A   [5]  1E BC 78 5A 19
 (060.359332)  can0  1B40090A   [5]  1E BC 0C 38 B9
 (060.359776)  can0  1B400A0A   [5]  1E BC 78 5A 19
 (060.360223)  can0  1B400B0A   [5]  1E BC 0C 38 B9
 (060.365745)  can0  1B400100   [8]  24 82 22 1A 00 00 33 40
 (060.366306)  can0  1B400200   [8]  24 82 22 1A 00 00 32 B0
 (060.366871)  can0  1B400300   [8]  24 82 22 1A 00 00 0C CD
 (060.450266)  can0  1B400400   [8]  24 82 22 1A 00 00 0C D1
 (060.450804)  can0  1B400500   [8]  24 82 22 1A 00 00 0C CF
 (060.451365)  can0  1B400600   [8]  24 82 22 1A 00 00 00 2D
 (060.467383)  can0  1B400700   [8]  24 82 22 1A 00 00 0C D1
 (060.467911)  can0  1B400800   [8]  24 82 22 3A 00 00 00 22
 (060.468367)  can0  1B400900   [5]  1E 41 C8 00 00
 (060.649939)  can0  1B400A00   [5]  1E 42 88 3E 50
 (061.275505)  can0  1B400100   [8]  24 82 22 1A 00 00 33 40
 (061.276018)  can0  1B400200   [8]  24 82 22 1A 00 00 32 A5
 (061.276578)  can0  1B400300   [8]  24 82 22 1A 00 00 0C CD
 (061.329346)  can0  1B40010A   [5]  1E 41 51 CA C1
 (061.329757)  can0  1B40020A   [5]  1E 41 48 56 9B
 (061.330215)  can0  1B40030A   [5]  1E BC 70 4B E5
 (061.330662)  can0  1B40040A   [5]  1E B2 93 74 BC
 (061.331100)  can0  1B40050A   [5]  1E C2 88 F5 D6
 (061.331543)  can0  1B40060A   [5]  1E 41 AE 5F 38
 (061.331830)  can0  1B40070A   [1]  3D
 (061.332287)  can0  1B40080A   [5]  1E BC 79 3A 27
 (061.332734)  can0  1B40090A   [5]  1E BC 0C 38 B9
 (061.333179)  can0  1B400A0A   [5]  1E BC 79 3A 27
 (061.333625)  can0  1B400B0A   [5]  1E BC 0C 38 B9
 (061.339156)  can0  1B400400   [8]  24 82 22 1A 00 00 0C D1
 (061.339705)  can0  1B400500   [8]  24 82 22 1A 00 00 0C D0
 (061.340266)  can0  1B400600   [8]  24 82 22 1A 00 00 00 2D
 (061.445283)  can0  1B400700   [8]  24 82 22 1A 00 00 0C D1
 (061.445822)  can0  1B400800   [8]  24 82 22 3A 00 00 00 1A
 (061.446253)  can0  1B400900   [5]  1E 41 C8 CC CD
 (061.449155)  can0  1B400A00   [5]  1E 42 88 3E 50
 (062.302848)  can0  1B40010A   [5]  1E 41 52 7E FA
 (062.303246)  can0  1B40020A   [5]  1E 41 49 3E 52
 (062.303689)  can0  1B40030A   [5]  1E 3B F0 4D 96
 (062.304140)  can0  1B40040A   [5]  1E 3B F0 4B A2
 (062.304575)  can0  1B40050A   [5]  1E C2 86 4D FE
 (062.305024)  can0  1B40060A   [5]  1E 41 AF 32 3E
 (062.305333)  can0  1B40070A   [1]  3D
 (062.305777)  can0  1B40080A   [5]  1E BC 78 C9 BF
 (062.306224)  can0  1B40090A   [5]  1E BC 0B C8 52
 (062.306668)  can0  1B400A0A   [5]  1E BC 78 C9 BF
 (062.307137)  can0  1B400B0A   [5]  1E BC 0B C8 52
 (062.312639)  can0  1B400100   [8]  24 82 22 1A 00 00 33 40
 (062.313185)  can0  1B400200   [8]  24 82 22 1A 00 00 32 B3
 (062.313746)  can0  1B400300   [8]  24 82 22 1A 00 00 0C CD
 (062.423185)  can0  1B400400   [8]  24 82 22 1A 00 00 0C D1
 (062.423714)  can0  1B400500   [8]  24 82 22 1A 00 00 0C D0
 (062.424271)  can0  1B400600   [8]  24 82 22 1A 00 00 00 2D
 (062.448405)  can0  1B400700   [8]  24 82 22 1A 00 00 0C D1
 (062.448953)  can0  1B400800   [8]  24 82 22 3A 00 00 00 1A
 (062.449396)  can0  1B400900   [5]  1E 41 C8 CC CD
 (062.648113)  can0  1B400A00   [5]  1E 42 88 3E 4F
 (063.247850)  can0  1B400100   [8]  24 82 22 1A 00 00 33 40
 (063.248399)  can0  1B400200   [8]  24 82 22 1A 00 00 32 BE
 (063.248950)  can0  1B400300   [8]  24 82 22 1A 00 00 0C CD
 (063.275681)  can0  1B40010A   [5]  1E 41 51 9D B2
 (063.276097)  can0  1B40020A   [5]  1E 41 48 56 9B
 (063.276555)  can0  1B40030A   [5]  1E BB F0 4C 04
 (063.277041)  can0  1B40040A   [5]  1E B2 93 74 BC
 (063.277435)  can0  1B40050A   [5]  1E C2 88 FD 73
 (063.277894)  can0  1B40060A   [5]  1E 41 AE A8 81
 (063.278177)  can0  1B40070A   [1]  3D
 (063.278631)  can0  1B40080A   [5]  1E BC 79 39 AE
 (063.279086)  can0  1B40090A   [5]  1E BC 0B C8 52
 (063.279535)  can0  1B400A0A   [5]  1E BC 79 39 AE
 (063.279974)  can0  1B400B0A   [5]  1E BC 0B C8 52
 (063.285475)  can0  1B400400   [8]  24 82 22 1A 00 00 0C D1
 (063.286040)  can0  1B400500   [8]  24 82 22 1A 00 00 0C D0
 (063.286606)  can0  1B400600   [8]  24 82 22 1A 00 00 00 2D
 (063.401051)  can0  1B400700   [8]  24 82 22 1A 00 00 0C D1
 (063.401565)  can0  1B400800   [8]  24 82 22 3A 00 00 00 11
 (063.402010)  can0  1B400900   [5]  1E 41 C8 CC CD
 (063.447402)  can0  1B400A00   [5]  1E 42 88 3E 4F
 (064.247042)  can0  1B400100   [8]  24 82 22 1A 00 00 33 40
 (064.247487)  can0  1B400200   [8]  24 82 22 1A 00 00 32 BF
 (064.248032)  can0  1B400300   [8]  24 82 22 1A 00 00 0C CD
 (064.249098)  can0  1B40010A   [5]  1E 41 51 CA C1
 (064.249541)  can0  1B40020A   [5]  1E 41 48 56 9B
 (064.249979)  can0  1B40030A   [5]  1E BC B4 39 67
 (064.250429)  can0  1B40040A   [5]  1E BB F0 4B EC
 (064.250870)  can0  1B40050A   [5]  1E C2 83 A6 27
 (064.251318)  can0  1B40060A   [5]  1E 41 AE 51 7D
 (064.251644)  can0  1B40070A   [1]  3D
 (064.252075)  can0  1B40080A   [5]  1E BC 7A 89 C4
 (064.252512)  can0  1B40090A   [5]  1E BC 0C 38 59
 (064.252954)  can0  1B400A0A   [5]  1E BC 7A 89 C4
 (064.253394)  can0  1B400B0A   [5]  1E BC 0C 38 59
 (064.258921)  can0  1B400400   [8]  24 82 22 1A 00 00 0C D1
 (064.259493)  can0  1B400500   [8]  24 82 22 1A 00 00 0C D0
 (064.260065)  can0  1B400600   [8]  24 82 22 1A 00 00 00 2D
 (064.446607)  can0  1B400700   [8]  24 82 22 1A 00 00 0C D1
 (064.447130)  can0  1B400800   [8]  24 82 22 3A 00 00 00 1A
 (064.447612)  can0  1B400900   [5]  1E 41 C8 CC CD
 (064.623273)  can0  1B400A00   [5]  1E 42 88 3E 4E
 (065.222541)  can0  1B40010A   [5]  1E 41 52 51 EC
 (065.222953)  can0  1B40020A   [5]  1E 41 49 8B 8F
 (065.223385)  can0  1B40030A   [5]  1E B2 F5 C2 8F
 (065.223848)  can0  1B40040A   [5]  1E 3B F0 4B A2
 (065.224288)  can0  1B40050A   [5]  1E C2 85 00 D0
 (065.224739)  can0  1B40060A   [5]  1E 41 AF CA 41
 (065.225024)  can0  1B40070A   [1]  3D
 (065.225504)  can0  1B40080A   [5]  1E BC 7A 89 C4
 (065.225940)  can0  1B40090A   [5]  1E BC 0B C8 0A
 (065.226367)  can0  1B400A0A   [5]  1E BC 7A 89 C4
 (065.226809)  can0  1B400B0A   [5]  1E BC 0B C8 0A
 (065.246037)  can0  1B400100   [8]  24 82 22 1A 00 00 33 40
 (065.246543)  can0  1B400200   [8]  24 82 22 1A 00 00 32 B3
 (065.247112)  can0  1B400300   [8]  24 82 22 1A 00 00 0C CD
 (065.445686)  can0  1B400400   [8]  24 82 22 1A 00 00 0C D1
 (065.446221)  can0  1B400500   [8]  24 82 22 1A 00 00 0C D0
 (065.446776)  can0  1B400600   [8]  24 82 22 1A 00 00 00 2D
 (065.601203)  can0  1B400700   [8]  24 82 22 1A 00 00 0C D1
 (065.601737)  can0  1B400800   [8]  24 82 22 3A 00 00 00 22
 (065.602174)  can0  1B400900   [5]  1E 41 C8 CC CD
 (065.645380)  can0  1B400A00   [5]  1E 42 88 3E 4E
 (066.196126)  can0  1B40010A   [5]  1E 41 51 43 96
 (066.196490)  can0  1B40020A   [5]  1E 41 48 56 9B
 (066.197011)  can0  1B40030A   [5]  1E BB F0 4C 04
 (066.197384)  can0  1B40040A   [5]  1E B2 93 74 BC
 (066.197837)  can0  1B40050A   [5]  1E C2 8C 03 2D
 (066.198285)  can0  1B40060A   [5]  1E 41 AE 43 C4
 (066.198574)  can0  1B40070A   [1]  3D
 (066.199062)  can0  1B40080A   [5]  1E BC 7A F9 83
 (066.199495)  can0  1B40090A   [5]  1E BC 0B C8 0A
 (066.199940)  can0  1B400A0A   [5]  1E BC 7A F9 83
 (066.200382)  can0  1B400B0A   [5]  1E BC 0B C8 0A
 (066.245165)  can0  1B400100   [8]  24 82 22 1A 00 00 33 40
 (066.245670)  can0  1B400200   [8]  24 82 22 1A 00 00 32 BC
 (066.246229)  can0  1B400300   [8]  24 82 22 1A 00 00 0C CD
 (066.444803)  can0  1B400400   [8]  24 82 22 1A 00 00 0C D1
 (066.445336)  can0  1B400500   [8]  24 82 22 1A 00 00 0C D0
 (066.445895)  can0  1B400600   [8]  24 82 22 1A 00 00 00 2D
 (066.578928)  can0  1B400700   [8]  24 82 22 1A 00 00 0C D1
 (066.579472)  can0  1B400800   [8]  24 82 22 3A 00 00 00 1A
 (066.579912)  can0  1B400900   [5]  1E 41 C8 CC CD
 (066.644509)  can0  1B400A00   [5]  1E 42 88 3E 4D
 (067.170071)  can0  1B40010A   [5]  1E 41 51 CA C1
 (067.170440)  can0  1B40020A   [5]  1E 41 48 A3 D7
 (067.170890)  can0  1B40030A   [5]  1E BC 70 4B E5
 (067.171357)  can0  1B40040A   [5]  1E BB F0 4B EC
 (067.171795)  can0  1B40050A   [5]  1E C2 86 34 F0
 (067.172246)  can0  1B40060A   [5]  1E 41 AE 7F 44
 (067.172542)  can0  1B40070A   [1]  3D
 (067.173017)  can0  1B40080A   [5]  1E BC 7B D9 91
 (067.173446)  can0  1B40090A   [5]  1E BC 0C 38 11
 (067.173880)  can0  1B400A0A   [5]  1E BC 7B D9 91
 (067.174329)  can0  1B400B0A   [5]  1E BC 0C 38 11
 (067.244258)  can0  1B400100   [8]  24 82 22 1A 00 00 33 40
 (067.244760)  can0  1B400200   [8]  24 82 22 1A 00 00 32 8A
 (067.245320)  can0  1B400300   [8]  24 82 22 1A 00 00 0C CD
 (067.443889)  can0  1B400400   [8]  24 82 22 1A 00 00 0C D1
 (067.444430)  can0  1B400500   [8]  24 82 22 1A 00 00 0C D0
 (067.444984)  can0  1B400600   [8]  24 82 22 1A 00 00 00 2D
 (067.556711)  can0  1B400700   [8]  24 82 22 1A 00 00 0C D1
 (067.557255)  can0  1B400800   [8]  24 82 22 3A 00 00 00 11
 (067.557711)  can0  1B400900   [5]  1E 41 C8 CC CD
 (067.643597)  can0  1B400A00   [5]  1E 42 88 3E 4D
 (068.143539)  can0  1B40010A   [5]  1E 41 51 F7 CF
 (068.143934)  can0  1B40020A   [5]  1E 41 48 A3 D7
 (068.144385)  can0  1B40030A   [5]  1E BB F0 4C 04
 (068.144832)  can0  1B40040A   [5]  1E B2 93 74 BC
 (068.145273)  can0  1B40050A   [5]  1E C2 84 FA FF
 (068.145722)  can0  1B40060A   [5]  1E 41 AF 69 76
 (068.146016)  can0  1B40070A   [1]  3D
 (068.146492)  can0  1B40080A   [5]  1E BC 7C 49 B0
 (068.146914)  can0  1B40090A   [5]  1E BC 0C 38 11
 (068.147343)  can0  1B400A0A   [5]  1E BC 7C 49 B0
 (068.147802)  can0  1B400B0A   [5]  1E BC 0C 38 11
 (068.243282)  can0  1B400100   [8]  24 82 22 1A 00 00 33 40
 (068.243806)  can0  1B400200   [8]  24 82 22 1A 00 00 32 C3
 (068.244362)  can0  1B400300   [8]  24 82 22 1A 00 00 0C CD
 (068.442909)  can0  1B400400   [8]  24 82 22 1A 00 00 0C D1
 (068.443449)  can0  1B400500   [8]  24 82 22 1A 00 00 0C D0
 (068.444009)  can0  1B400600   [8]  24 82 22 1A 00 00 00 2D
 (068.534611)  can0  1B400700   [8]  24 82 22 1A 00 00 0C D1
 (068.535166)  can0  1B400800   [8]  24 82 22 3A 00 00 00 22
 (068.535607)  can0  1B400900   [5]  1E 41 C8 CC CD
 (068.642595)  can0  1B400A00   [5]  1E 42 88 3E 4C
 (069.117061)  can0  1B40010A   [5]  1E 41 52 51 EC
 (069.117433)  can0  1B40020A   [5]  1E 41 49 3E 52
 (069.117882)  can0  1B40030A   [5]  1E BB F0 4C 04
 (069.118338)  can0  1B40040A   [5]  1E 3B F0 4B A2
 (069.118780)  can0  1B40050A   [5]  1E C2 8A 7C 39
 (069.119224)  can0  1B40060A   [5]  1E 41 AE AD 17
 (069.119522)  can0  1B40070A   [1]  3D
 (069.120003)  can0  1B40080A   [5]  1E BC 7C B9 FF
 (069.120432)  can0  1B40090A   [5]  1E BC 0B C7 C2
 (069.120888)  can0  1B400A0A   [5]  1E BC 7C B9 FF
 (069.121340)  can0  1B400B0A   [5]  1E BC 0B C7 C2
 (069.242237)  can0  1B400100   [8]  24 82 22 1A 00 00 33 40
 (069.242760)  can0  1B400200   [8]  24 82 22 1A 00 00 32 B9
 (069.243309)  can0  1B400300   [8]  24 82 22 1A 00 00 0C CD
 (069.441866)  can0  1B400400   [8]  24 82 22 1A 00 00 0C D1
 (069.442404)  can0  1B400500   [8]  24 82 22 1A 00 00 0C D0
 (069.442960)  can0  1B400600   [8]  24 82 22 1A 00 00 00 2D
 (069.512543)  can0  1B400700   [8]  24 82 22 1A 00 00 0C D1
 (069.513099)  can0  1B400800   [8]  24 82 22 3A 00 00 00 22
 (069.513537)  can0  1B400900   [5]  1E 41 C8 CC CD
 (069.641569)  can0  1B400A00   [5]  1E 42 88 3E 4C
 (070.089903)  can0  1B40010A   [5]  1E 41 51 CA C1
 (070.090333)  can0  1B40020A   [5]  1E 41 48 56 9B
 (070.090763)  can0  1B40030A   [5]  1E BC 70 4B E5
 (070.091214)  can0  1B40040A   [5]  1E BB F0 4B EC
 (070.091668)  can0  1B40050A   [5]  1E C2 88 F3 EF
 (070.092105)  can0  1B40060A   [5]  1E 41 AE BA D8
 (070.092407)  can0  1B40070A   [1]  3D
 (070.092863)  can0  1B40080A   [5]  1E BC 7D 9A 0D
 (070.093308)  can0  1B40090A   [5]  1E BC 0C 37 C9
 (070.093756)  can0  1B400A0A   [5]  1E BC 7D 9A 0D
 (070.094199)  can0  1B400B0A   [5]  1E BC 0C 37 C9
 (070.241233)  can0  1B400100   [8]  24 82 22 1A 00 00 33 40
 (070.241730)  can0  1B400200   [8]  24 82 22 1A 00 00 32 B8
 (070.242291)  can0  1B400300   [8]  24 82 22 1A 00 00 0C CD
 (070.440840)  can0  1B400400   [8]  24 82 22 1A 00 00 0C D1
 (070.441376)  can0  1B400500   [8]  24 82 22 1A 00 00 0C D0
 (070.441945)  can0  1B400600   [8]  24 82 22 1A 00 00 00 2D
 (070.490478)  can0  1B400700   [8]  24 82 22 1A 00 00 0C D1
 (070.491014)  can0  1B400800   [8]  24 82 22 3A 00 00 00 22
 (070.491455)  can0  1B400900   [5]  1E 41 C8 CC CD
 (070.640516)  can0  1B400A00   [5]  1E 42 88 3E 4B
 (071.063261)  can0  1B40010A   [5]  1E 41 51 CA C1
 (071.063680)  can0  1B40020A   [5]  1E 41 48 56 9B
 (071.064128)  can0  1B40030A   [5]  1E BC B4 39 67
 (071.064569)  can0  1B40040A   [5]  1E BC 70 4C DF
 (071.065012)  can0  1B40050A   [5]  1E C2 8D A4 40
 (071.065462)  can0  1B40060A   [5]  1E 41 AD FA A5
 (071.065750)  can0  1B40070A   [1]  3D
 (071.066217)  can0  1B40080A   [5]  1E BC 7E EA 23
 (071.066660)  can0  1B40090A   [5]  1E BC 0D 17 D8
 (071.067114)  can0  1B400A0A   [5]  1E BC 7E EA 23
 (071.067560)  can0  1B400B0A   [5]  1E BC 0D 17 D8
 (071.240237)  can0  1B400100   [8]  24 82 22 1A 00 00 33 40
 (071.240745)  can0  1B400200   [8]  24 82 22 1A 00 00 32 D8
 (071.241301)  can0  1B400300   [8]  24 82 22 1A 00 00 0C CD
 (071.439871)  can0  1B400400   [8]  24 82 22 1A 00 00 0C D1
 (071.440397)  can0  1B400500   [8]  24 82 22 1A 00 00 0C D0
 (071.440952)  can0  1B400600   [8]  24 82 22 1A 00 00 00 2D
 (071.468343)  can0  1B400700   [8]  24 82 22 1A 00 00 0C D1
 (071.468896)  can0  1B400800   [8]  24 82 22 3A 00 00 00 22
 (071.469333)  can0  1B400900   [5]  1E 41 C8 CC CD
 (071.639543)  can0  1B400A00   [5]  1E 42 88 3E 4A
 (072.036725)  can0  1B40010A   [5]  1E 41 52 24 DD
 (072.037145)  can0  1B40020A   [5]  1E 41 48 A3 D7
 (072.037601)  can0  1B40030A   [5]  1E BB F0 4C 04
 (072.038059)  can0  1B40040A   [5]  1E 3B F0 4B A2
 (072.038497)  can0  1B40050A   [5]  1E C2 86 3A BB
 (072.038937)  can0  1B40060A   [5]  1E 41 AE E4 23
 (072.039225)  can0  1B40070A   [1]  3D
 (072.039699)  can0  1B40080A   [5]  1E BC 7F 5A 5A
 (072.040139)  can0  1B40090A   [5]  1E BC 0C A7 A1
 (072.040584)  can0  1B400A0A   [5]  1E BC 7F 5A 5A
 (072.041026)  can0  1B400B0A   [5]  1E BC 0C A7 A1
 (072.239239)  can0  1B400100   [8]  24 82 22 1A 00 00 33 40
 (072.239775)  can0  1B400200   [8]  24 82 22 1A 00 00 32 BE
 (072.240310)  can0  1B400300   [8]  24 82 22 1A 00 00 0C CD
 (072.438864)  can0  1B400400   [8]  24 82 22 1A 00 00 0C D1
 (072.439406)  can0  1B400500   [8]  24 82 22 1A 00 00 0C D0
 (072.439963)  can0  1B400600   [8]  24 82 22 1A 00 00 00 2D
 (072.638658)  can0  1B400700   [8]  24 82 22 1A 00 00 0C D1
 (072.639203)  can0  1B400800   [8]  24 82 22 3A 00 00 00 1A
 (072.639639)  can0  1B400900   [5]  1E 41 C8 CC CD
 (072.838341)  can0  1B400A00   [5]  1E 42 88 3E 4A
 (073.010738)  can0  1B40010A   [5]  1E 41 51 43 96
 (073.011166)  can0  1B40020A   [5]  1E 41 47 BC 20
 (073.011600)  can0  1B40030A   [5]  1E BC B4 39 67
 (073.012050)  can0  1B40040A   [5]  1E BB F0 4B EC
 (073.012492)  can0  1B40050A   [5]  1E C2 8A 63 A7
 (073.012942)  can0  1B40060A   [5]  1E 41 AD B1 A6
 (073.013249)  can0  1B40070A   [1]  3D
 (073.013696)  can0  1B40080A   [5]  1E BC 80 54 CC
 (073.014136)  can0  1B40090A   [5]  1E BC 0D 17 60
 (073.014584)  can0  1B400A0A   [5]  1E BC 80 54 CC
 (073.015030)  can0  1B400B0A   [5]  1E BC 0D 17 60
 (073.238238)  can0  1B400100   [8]  24 82 22 1A 00 00 33 40
 (073.238749)  can0  1B400200   [8]  24 82 22 1A 00 00 32 DB
 (073.239315)  can0  1B400300   [8]  24 82 22 1A 00 00 0C CD
 (073.437867)  can0  1B400400   [8]  24 82 22 1A 00 00 0C D1
 (073.438405)  can0  1B400500   [8]  24 82 22 1A 00 00 0C CF
 (073.438953)  can0  1B400600   [8]  24 82 22 1A 00 00 00 2D
 (073.637634)  can0  1B400700   [8]  24 82 22 1A 00 00 0C D1
 (073.638180)  can0  1B400800   [8]  24 82 22 3A 00 00 00 1A
 (073.638614)  can0  1B400900   [5]  1E 41 C8 CC CD
 (073.668497)  can0  1B400A00   [5]  1E 42 88 3E 49
 (073.984224)  can0  1B40010A   [5]  1E 41 52 24 DD
 (073.984643)  can0  1B40020A   [5]  1E 41 48 F1 14
 (073.985074)  can0  1B40030A   [5]  1E B2 F5 C2 8F
 (073.985513)  can0  1B40040A   [5]  1E B2 93 74 BC
 (073.985952)  can0  1B40050A   [5]  1E C2 86 44 5F
 (073.986402)  can0  1B40060A   [5]  1E 41 AE CD 31
 (073.986713)  can0  1B40070A   [1]  3D
 (073.987150)  can0  1B40080A   [5]  1E BC 80 54 CC
 (073.987612)  can0  1B40090A   [5]  1E BC 0D 17 60
 (073.988047)  can0  1B400A0A   [5]  1E BC 80 54 CC
 (073.988493)  can0  1B400B0A   [5]  1E BC 0D 17 60
 (074.237181)  can0  1B400100   [8]  24 82 22 1A 00 00 33 40
 (074.237688)  can0  1B400200   [8]  24 82 22 1A 00 00 32 C3
 (074.238245)  can0  1B400300   [8]  24 82 22 1A 00 00 0C CD
 (074.436789)  can0  1B400400   [8]  24 82 22 1A 00 00 0C D1
 (074.437337)  can0  1B400500   [8]  24 82 22 1A 00 00 0C D0
 (074.437900)  can0  1B400600   [8]  24 82 22 1A 00 00 00 2D
 (074.636560)  can0  1B400700   [8]  24 82 22 1A 00 00 0C D1
 (074.637105)  can0  1B400800   [8]  24 82 22 3A 00 00 00 1A
 (074.637548)  can0  1B400900   [5]  1E 41 C8 CC CD
 (074.646402)  can0  1B400A00   [5]  1E 42 88 3E 49
 (074.957760)  can0  1B40010A   [5]  1E 41 52 51 EC
 (074.958177)  can0  1B40020A   [5]  1E 41 48 F1 14
 (074.958611)  can0  1B40030A   [5]  1E B2 F5 C2 8F
 (074.959050)  can0  1B40040A   [5]  1E B2 93 74 BC
 (074.959497)  can0  1B40050A   [5]  1E C2 83 BF 96
 (074.959942)  can0  1B40060A   [5]  1E 41 AE C8 9B
 (074.960248)  can0  1B40070A   [1]  3D
 (074.960694)  can0  1B40080A   [5]  1E BC 80 54 CC
 (074.961137)  can0  1B40090A   [5]  1E BC 0D 17 60
 (074.961586)  can0  1B400A0A   [5]  1E BC 80 54 CC
 (074.962030)  can0  1B400B0A   [5]  1E BC 0D 17 60
 (075.236104)  can0  1B400100   [8]  24 82 22 1A 00 00 33 40
 (075.236613)  can0  1B400200   [8]  24 82 22 1A 00 00 32 AF
 (075.237205)  can0  1B400300   [8]  24 82 22 1A 00 00 0C CD
 (075.435725)  can0  1B400400   [8]  24 82 22 1A 00 00 0C D1
 (075.436274)  can0  1B400500   [8]  24 82 22 1A 00 00 0C D0
 (075.436831)  can0  1B400600   [8]  24 82 22 1A 00 00 00 2D
 (075.624400)  can0  1B400700   [8]  24 82 22 1A 00 00 0C D1
 (075.624936)  can0  1B400800   [8]  24 82 22 3A 00 00 00 22
 (075.625377)  can0  1B400900   [5]  1E 41 C8 CC CD
 (075.635385)  can0  1B400A00   [5]  1E 42 88 3E 48
 (075.930509)  can0  1B40010A   [5]  1E 41 51 70 A4
 (075.930934)  can0  1B40020A   [5]  1E 41 47 BC 20
 (075.931387)  can0  1B40030A   [5]  1E BC B4 39 67
 (075.931814)  can0  1B40040A   [5]  1E BC B4 39 61
 (075.932257)  can0  1B40050A   [5]  1E C2 8F 60 F2
 (075.932704)  can0  1B40060A   [5]  1E 41 AD 36 BC
 (075.932988)  can0  1B40070A   [1]  3D
 (075.933469)  can0  1B40080A   [5]  1E BC 80 FC 8F
 (075.933913)  can0  1B40090A   [5]  1E BC 0E 66 E5
 (075.934361)  can0  1B400A0A   [5]  1E BC 80 FC 8F
 (075.934801)  can0  1B400B0A   [5]  1E BC 0E 66 E5
 (076.235051)  can0  1B400100   [8]  24 82 22 1A 00 00 33 40
 (076.235561)  can0  1B400200   [8]  24 82 22 1A 00 00 32 BF
 (076.236136)  can0  1B400300   [8]  24 82 22 1A 00 00 0C CD
 (076.434682)  can0  1B400400   [8]  24 82 22 1A 00 00 0C D1
 (076.435225)  can0  1B400500   [8]  24 82 22 1A 00 00 0C D0
 (076.435784)  can0  1B400600   [8]  24 82 22 1A 00 00 00 2D
 (076.602358)  can0  1B400700   [8]  24 82 22 1A 00 00 0C D1
 (076.602897)  can0  1B400800   [8]  24 82 22 3A 00 00 00 22
 (076.603335)  can0  1B400900   [5]  1E 41 C8 CC CD
 (076.634349)  can0  1B400A00   [5]  1E 42 88 3E 48
 (076.904080)  can0  1B40010A   [5]  1E 41 51 F7 CF
 (076.904501)  can0  1B40020A   [5]  1E 41 48 A3 D7
 (076.904947)  can0  1B40030A   [5]  1E BB F0 4C 04
 (076.905384)  can0  1B40040A   [5]  1E B2 93 74 BC
 (076.905832)  can0  1B40050A   [5]  1E C2 83 BD A3
 (076.906275)  can0  1B40060A   [5]  1E 41 AF 24 73
 (076.906573)  can0  1B40070A   [1]  3D
 (076.907131)  can0  1B40080A   [5]  1E BC 81 34 9F
 (076.907480)  can0  1B40090A   [5]  1E BC 0E 66 E5
 (076.907930)  can0  1B400A0A   [5]  1E BC 81 34 9F
 (076.908380)  can0  1B400B0A   [5]  1E BC 0E 66 E5
 (077.234036)  can0  1B400100   [8]  24 82 22 1A 00 00 33 40
 (077.234538)  can0  1B400200   [8]  24 82 22 1A 00 00 32 AC
 (077.235093)  can0  1B400300   [8]  24 82 22 1A 00 00 0C CD
 (077.433644)  can0  1B400400   [8]  24 82 22 1A 00 00 0C D1
 (077.434197)  can0  1B400500   [8]  24 82 22 1A 00 00 0C CF
 (077.434753)  can0  1B400600   [8]  24 82 22 1A 00 00 00 2D
 (077.580253)  can0  1B400700   [8]  24 82 22 1A 00 00 0C D1
 (077.580798)  can0  1B400800   [8]  24 82 22 3A 00 00 00 1A
 (077.581237)  can0  1B400900   [5]  1E 41 C8 CC CD
 (077.633341)  can0  1B400A00   [5]  1E 42 88 3E 47
 (077.877451)  can0  1B40010A   [5]  1E 41 51 9D B2
 (077.877873)  can0  1B40020A   [5]  1E 41 48 56 9B
 (077.878310)  can0  1B40030A   [5]  1E BC 70 4B E5
 (077.878761)  can0  1B40040A   [5]  1E BB F0 4B EC
 (077.879198)  can0  1B40050A   [5]  1E C2 87 86 22
 (077.879644)  can0  1B40060A   [5]  1E 41 AE 96 2C
 (077.879952)  can0  1B40070A   [1]  3D
 (077.880397)  can0  1B40080A   [5]  1E BC 81 A4 8E
 (077.880840)  can0  1B40090A   [5]  1E BC 0E D6 D4
 (077.881282)  can0  1B400A0A   [5]  1E BC 81 A4 8E
 (077.881722)  can0  1B400B0A   [5]  1E BC 0E D6 D4
 (078.233099)  can0  1B400100   [8]  24 82 22 1A 00 00 33 40
 (078.233610)  can0  1B400200   [8]  24 82 22 1A 00 00 32 BD
 (078.234169)  can0  1B400300   [8]  24 82 22 1A 00 00 0C CD
 (078.432708)  can0  1B400400   [8]  24 82 22 1A 00 00 0C D1
 (078.433273)  can0  1B400500   [8]  24 82 22 1A 00 00 0C D0
 (078.433832)  can0  1B400600   [8]  24 82 22 1A 00 00 00 2D
 (078.558150)  can0  1B400700   [8]  24 82 22 1A 00 00 0C D1
 (078.558691)  can0  1B400800   [8]  24 82 22 3A 00 00 00 1A
 (078.559131)  can0  1B400900   [5]  1E 41 C8 CC CD
 (078.632428)  can0  1B400A00   [5]  1E 42 88 3E 47
 (078.850963)  can0  1B40010A   [5]  1E 41 51 9D B2
 (078.851384)  can0  1B40020A   [5]  1E 41 48 56 9B
 (078.851832)  can0  1B40030A   [5]  1E BC F0 4C 59
 (078.852260)  can0  1B40040A   [5]  1E B2 93 74 BC
 (078.852698)  can0  1B40050A   [5]  1E C2 86 31 12
 (078.853144)  can0  1B40060A   [5]  1E 41 AE BA D8
 (078.853454)  can0  1B40070A   [1]  3D
 (078.853897)  can0  1B40080A   [5]  1E BC 82 84 6C
 (078.854338)  can0  1B40090A   [5]  1E BC 0E D6 D4
 (078.854789)  can0  1B400A0A   [5]  1E BC 82 84 6C
 (078.855232)  can0  1B400B0A   [5]  1E BC 0E D6 D4
 (079.232193)  can0  1B400100   [8]  24 82 22 1A 00 00 33 40
 (079.232705)  can0  1B400200   [8]  24 82 22 1A 00 00 32 A4
 (079.233249)  can0  1B400300   [8]  24 82 22 1A 00 00 0C CD
 (079.431817)  can0  1B400400   [8]  24 82 22 1A 00 00 0C D1
 (079.432355)  can0  1B400500   [8]  24 82 22 1A 00 00 0C D0
 (079.432901)  can0  1B400600   [8]  24 82 22 1A 00 00 00 2D
 (079.536110)  can0  1B400700   [8]  24 82 22 1A 00 00 0C D1
 (079.536647)  can0  1B400800   [8]  24 82 22 3A 00 00 00 1A
 (079.537104)  can0  1B400900   [5]  1E 41 C8 CC CD
 (079.631475)  can0  1B400A00   [5]  1E 42 88 3E 46
 (079.825066)  can0  1B40010A   [5]  1E 41 52 24 DD
 (079.825461)  can0  1B40020A   [5]  1E 41 48 56 9B
 (079.825909)  can0  1B40030A   [5]  1E BC 70 4B E5
 (079.826348)  can0  1B40040A   [5]  1E B2 93 74 BC
 (079.826780)  can0  1B40050A   [5]  1E C2 86 2F 24
 (079.827237)  can0  1B40060A   [5]  1E 41 AE D6 5F
 (079.827529)  can0  1B40070A   [1]  3D
 (079.828001)  can0  1B40080A   [5]  1E BC 82 F4 A3
 (079.828446)  can0  1B40090A   [5]  1E BC 0E D6 D4
 (079.828894)  can0  1B400A0A   [5]  1E BC 82 F4 A3
 (079.829332)  can0  1B400B0A   [5]  1E BC 0E D6 D4
 (080.231145)  can0  1B400100   [8]  24 82 22 1A 00 00 33 40
 (080.231670)  can0  1B400200   [8]  24 82 22 1A 00 00 32 BF
 (080.232235)  can0  1B400300   [8]  24 82 22 1A 00 00 0C CD
 (080.430782)  can0  1B400400   [8]  24 82 22 1A 00 00 0C D1
 (080.431311)  can0  1B400500   [8]  24 82 22 1A 00 00 0C D0
 (080.431867)  can0  1B400600   [8]  24 82 22 1A 00 00 00 2D
 (080.513967)  can0  1B400700   [8]  24 82 22 1A 00 00 0C D1
 (080.514526)  can0  1B400800   [8]  24 82 22 3A 00 00 00 1A
 (080.514971)  can0  1B400900   [5]  1E 41 C8 CC CD
 (080.630432)  can0  1B400A00   [5]  1E 42 88 3E 46
 (080.798474)  can0  1B40010A   [5]  1E 41 51 F7 CF
 (080.798893)  can0  1B40020A   [5]  1E 41 48 56 9B
 (080.799337)  can0  1B40030A   [5]  1E BB F0 4C 04
 (080.799795)  can0  1B40040A   [5]  1E 3B F0 4B A2
 (080.800237)  can0  1B40050A   [5]  1E C2 8A 7F FF
 (080.800690)  can0  1B40060A   [5]  1E 41 AE 71 87
 (080.800997)  can0  1B40070A   [1]  3D
 (080.801440)  can0  1B40080A   [5]  1E BC 83 2C B3
 (080.801883)  can0  1B40090A   [5]  1E BC 0E 66 B5
 (080.802326)  can0  1B400A0A   [5]  1E BC 83 2C B3
 (080.802770)  can0  1B400B0A   [5]  1E BC 0E 66 B5
 (081.230071)  can0  1B400100   [8]  24 82 22 1A 00 00 33 40
 (081.230564)  can0  1B400200   [8]  24 82 22 1A 00 00 32 C1
 (081.231123)  can0  1B400300   [8]  24 82 22 1A 00 00 0C CD
 (081.429665)  can0  1B400400   [8]  24 82 22 1A 00 00 0C D1
 (081.430193)  can0  1B400500   [8]  24 82 22 1A 00 00 0C D0
 (081.430749)  can0  1B400600   [8]  24 82 22 1A 00 00 00 2D
 (081.491901)  can0  1B400700   [8]  24 82 22 1A 00 00 0C D1
 (081.492442)  can0  1B400800   [8]  24 82 22 3A 00 00 00 11
 (081.492882)  can0  1B400900   [5]  1E 41 C8 CC CD
 (081.629316)  can0  1B400A00   [5]  1E 42 88 3E 45
 (081.772027)  can0  1B40010A   [5]  1E 41 52 24 DD
 (081.772462)  can0  1B40020A   [5]  1E 41 48 A3 D7
 (081.772900)  can0  1B40030A   [5]  1E BB F0 4C 04
 (081.773337)  can0  1B40040A   [5]  1E B2 93 74 BC
 (081.773776)  can0  1B40050A   [5]  1E C2 8A 74 AD
 (081.774226)  can0  1B40060A   [5]  1E 41 AF 60 41
 (081.774531)  can0  1B40070A   [1]  3D
 (081.774980)  can0  1B40080A   [5]  1E BC 83 64 CF
 (081.775422)  can0  1B40090A   [5]  1E BC 0E 66 B5
 (081.775869)  can0  1B400A0A   [5]  1E BC 83 64 CF
 (081.776313)  can0  1B400B0A   [5]  1E BC 0E 66 B5
 (082.228915)  can0  1B400100   [8]  24 82 22 1A 00 00 33 40
 (082.229405)  can0  1B400200   [8]  24 82 22 1A 00 00 32 AF
 (082.229968)  can0  1B400300   [8]  24 82 22 1A 00 00 0C CD
 (082.428494)  can0  1B400400   [8]  24 82 22 1A 00 00 0C D1
 (082.429018)  can0  1B400500   [8]  24 82 22 1A 00 00 0C D0
 (082.429574)  can0  1B400600   [8]  24 82 22 1A 00 00 00 2D
 (082.469860)  can0  1B400700   [8]  24 82 22 1A 00 00 0C D1
 (082.470420)  can0  1B400800   [8]  24 82 22 3A 00 00 00 1A
 (082.470864)  can0  1B400900   [5]  1E 41 C8 CC CD
 (082.628121)  can0  1B400A00   [5]  1E 42 88 3E 45
 (082.744819)  can0  1B40010A   [5]  1E 41 51 CA C1
 (082.745241)  can0  1B40020A   [5]  1E 41 48 A3 D7
 (082.745687)  can0  1B40030A   [5]  1E BB F0 4C 04
 (082.746138)  can0  1B40040A   [5]  1E 3B F0 4B A2
 (082.746575)  can0  1B40050A   [5]  1E C2 88 F9 A5
 (082.747101)  can0  1B40060A   [5]  1E 41 AE A3 EB
 (082.747310)  can0  1B40070A   [1]  3D
 (082.747784)  can0  1B40080A   [5]  1E BC 83 9C D3
 (082.748238)  can0  1B40090A   [5]  1E BC 0D F6 AE
 (082.748678)  can0  1B400A0A   [5]  1E BC 83 9C D3
 (082.749124)  can0  1B400B0A   [5]  1E BC 0D F6 AE
 (083.227771)  can0  1B400100   [8]  24 82 22 1A 00 00 33 40
 (083.228281)  can0  1B400200   [8]  24 82 22 1A 00 00 32 AF
 (083.228837)  can0  1B400300   [8]  24 82 22 1A 00 00 0C CD
 (083.427367)  can0  1B400400   [8]  24 82 22 1A 00 00 0C D1
 (083.427900)  can0  1B400500   [8]  24 82 22 1A 00 00 0C D0
 (083.428454)  can0  1B400600   [8]  24 82 22 1A 00 00 00 2D
 (083.627122)  can0  1B400700   [8]  24 82 22 1A 00 00 0C D1
 (083.627667)  can0  1B400800   [8]  24 82 22 3A 00 00 00 1A
 (083.628116)  can0  1B400900   [5]  1E 41 C8 CC CD
 (083.718325)  can0  1B40010A   [5]  1E 41 57 99 9A
 (083.718740)  can0  1B40020A   [5]  1E 42 0E 55 6F
 (083.719203)  can0  1B40030A   [5]  1E 40 07 2B 02
 (083.719649)  can0  1B40040A   [5]  1E BD 96 2F C1
 (083.720085)  can0  1B40050A   [5]  1E C2 93 54 99
 (083.720529)  can0  1B40060A   [5]  1E 41 AD BA C4
 (083.720815)  can0  1B40070A   [1]  3D
 (083.721292)  can0  1B40080A   [5]  1E BC 05 B4 47
 (083.721728)  can0  1B40090A   [5]  1E BC 12 75 FA
 (083.722181)  can0  1B400A0A   [5]  1E BC 05 B4 47
 (083.722627)  can0  1B400B0A   [5]  1E BC 12 75 FA
 (083.728026)  can0  1B400A00   [5]  1E 42 88 3E 44
 (084.226569)  can0  1B400100   [8]  24 82 22 1A 00 00 33 68
 (084.227108)  can0  1B400200   [8]  24 82 22 1A 00 00 33 2C
 (084.227622)  can0  1B400300   [8]  24 82 22 1A 00 00 0C D4
 (084.426136)  can0  1B400400   [8]  24 82 22 1A 00 00 0C E0
 (084.426691)  can0  1B400500   [8]  24 82 22 1A 00 00 0C D7
 (084.427228)  can0  1B400600   [8]  24 82 22 1A 00 00 00 2D
 (084.625875)  can0  1B400700   [8]  24 82 22 1A 00 00 0C DC
 (084.626404)  can0  1B400800   [8]  24 82 22 1A 00 00 0A 40
 (084.626843)  can0  1B400900   [5]  1E 41 C8 CC CD
 (084.670269)  can0  1B400A00   [5]  1E 42 88 3E 7A
 (084.691856)  can0  1B40010A   [5]  1E 41 59 89 37
 (084.692279)  can0  1B40020A   [5]  1E 42 07 2B 02
 (084.692731)  can0  1B40030A   [5]  1E 40 37 82 64
 (084.693172)  can0  1B40040A   [5]  1E BD A5 34 9E
 (084.693613)  can0  1B40050A   [5]  1E C2 8F 71 8A
 (084.694065)  can0  1B40060A   [5]  1E 41 AF 60 41
 (084.694352)  can0  1B40070A   [1]  3D
 (084.694825)  can0  1B40080A   [5]  1E 3B 2E DE BB
 (084.695254)  can0  1B40090A   [5]  1E BC 17 73 C7
 (084.695705)  can0  1B400A0A   [5]  1E 3B 2E DE BB
 (084.696140)  can0  1B400B0A   [5]  1E BC 17 73 C7
 (085.225300)  can0  1B400100   [8]  24 82 22 1A 00 00 33 71
 (085.225827)  can0  1B400200   [8]  24 82 22 1A 00 00 33 4E
 (085.226384)  can0  1B400300   [8]  24 82 22 1A 00 00 0C D6
 (085.424927)  can0  1B400400   [8]  24 82 22 1A 00 00 0C E2
 (085.425438)  can0  1B400500   [8]  24 82 22 1A 00 00 0C D9
 (085.425996)  can0  1B400600   [8]  24 82 22 1A 00 00 00 2D
